! Touchstone file from project TestMultiLine
! Exported from HFSS 14.0.0
! Variables:
!  gap = 3.5mm
!  hair = 35mm
!  hsub = 0.762mm
!  l = 31.5mm
!  lair = 50mm
!  lmic = 14mm
!  w = 25mm
!  wair = 40mm
!  wmic = 2.1mm
!  wp = 1mm
!Data is not renormalized
# GHZ S MA
! Modal data exported
! Port[1] = 1:1
! Port[2] = 2:1
1                0.00566886256198441 174.622182285418 0.996360205307298 -56.4331587494755 0.996360205307189 -56.4331587494754 0.00775546615526606 -90.8942814405404 
1.04             0.00567662778508307 171.350746365594 0.996257175691089 -58.6912633257249 0.996257175691198 -58.6912633257176 0.00789500334211809 -92.645708455962 
1.08             0.00566655060483147 167.843652269114 0.996147994351472 -60.9492260855164 0.996147994351807 -60.9492260855032 0.00800389631835429 -94.1150291404118 
1.12             0.00563888507511173 164.081165644464 0.996032950410024 -63.2070285090614 0.99603295041059 -63.2070285090438 0.00808680480712047 -95.2963356427606 
1.16             0.00559432413483391 160.039185904177 0.995912360227776 -65.4646542449291 0.995912360228573 -65.4646542449083 0.00814877382704334 -96.185782515939 
1.2              0.00553410401086109 155.688877220556 0.995786562532602 -67.7220891542572 0.995786562533627 -67.7220891542344 0.00819513920204782 -96.7817616306898 
1.24             0.00546013149604471 150.99647773328  0.995655913842172 -69.9793213247396 0.995655913843419 -69.9793213247159 0.00823145491187505 -97.0852611911069 
1.28             0.00537513606614251 145.923508989108 0.995520784203944 -72.2363410592191 0.995520784205404 -72.2363410591954 0.00826343341708164 -97.1003982869225 
1.32             0.00528284546626208 140.427745165153 0.995381553261274 -74.4931408432136 0.995381553262937 -74.4931408431908 0.00829688927466063 -96.835084614755 
1.36             0.00518817614754459 134.465478617489 0.995238606645318 -76.7497152951867 0.995238606647171 -76.7497152951655 0.00833767683499446 -96.3017488784152 
1.4              0.00509741646014142 127.995789859662 0.99509233268547 -79.0060611028707 0.9950923326875  -79.0060611028516 0.00839161459962692 -95.5180007948953 
1.44             0.00501835889552117 120.98756371836  0.994943119426337 -81.2621769484712 0.994943119428529 -81.2621769484548 0.00846439197179524 -94.5070894155018 
1.48             0.00496030925713191 113.429620435948 0.994791351936087 -83.5180634251515 0.994791351938426 -83.5180634251379 0.00856145853596986 -93.2979960786965 
1.52             0.00493387546405982 105.343182228137 0.994637409889259 -85.7737229468026 0.99463740989173 -85.773722946792 0.00868790117258807 -91.9250242972794 
1.56             0.00495044098610563 96.7938029837421 0.994481665406293 -88.029159652765 0.994481665408881 -88.0291596527575 0.0088483192771021 -90.4268138953362 
1.6              0.00502129140610741 87.8975383777932 0.994324481132011 -90.2843793088754 0.994324481134701 -90.284379308871 0.00904671178058389 -88.8448094181744 
1.64             0.00515650133543726 78.8155496797923 0.99416620853575 -92.5393892059575 0.994166208538528 -92.539389205956 0.00928639030954965 -87.2213299892294 
1.68             0.00536385155221191 69.7347891541134 0.994007186416688 -94.7941980566714 0.994007186419539 -94.7941980566725 0.00956993008667067 -85.5974835085916 
1.72             0.00564811368287839 60.8393896127314 0.993847739598943 -97.048815891459 0.993847739601853 -97.0488158914624 0.00989916455961358 -84.0112085356037 
1.76             0.00601092199008316 52.2830583881533 0.993688177802232 -99.3032539541832 0.993688177805191 -99.3032539541887 0.0102752227763125 -82.4956972389396 
1.8              0.00645120501804265 44.1721307962928 0.993528794675074 -101.557524597944 0.99352879467807 -101.557524597951 0.0106986021634382 -81.0783640440289 
1.84             0.00696594474074322 36.5625736127075 0.993369866978722 -103.811641181465 0.993369866981745 -103.811641181473 0.0111692652077093 -79.7804092218417 
1.88             0.00755098528956467 29.4676351163847 0.993211653911197 -106.065617966369 0.993211653914238 -106.065617966378 0.0116867472547197 -78.616921252167 
1.92             0.00820170118157123 22.8701915214078 0.993054396561851 -108.319470015613 0.993054396564901 -108.319470015621 0.0122502639036454 -77.5973918758208 
1.96             0.00891345657213608 16.7349311846788 0.992898317487881 -110.573213093306 0.992898317490934 -110.573213093314 0.0128588093380813 -76.7264909763702 
2                0.00968187184774057 11.0179332411262 0.992743620405118 -112.826863566106 0.992743620408167 -112.826863566113 0.0135112403166887 -76.0049574757235 
2.04             0.0105029484097781 5.67313669835009 0.992590489986188 -115.080438306369 0.992590489989231 -115.080438306375 0.014206343621433 -75.4304928179791 
2.08             0.0113731038451692 0.656180664808011 0.992439091759843 -117.333954597201 0.992439091762874 -117.333954597205 0.0149428870818612 -74.9985810968321 
2.12             0.0122891575266617 -4.07362940777278 0.992289572105833 -119.587430039576 0.992289572108849 -119.587430039577 0.0157196557595475 -74.7031944723364 
2.16             0.0132482928617802 -8.55254837124006 0.992142058340216 -121.840882461643 0.992142058343216 -121.840882461641 0.0165354756013046 -74.5373692775717 
2.2              0.014248011511128 -12.8123089080129 0.991996658886398 -124.094329830377 0.99199665888938 -124.094329830371 0.0173892270555202 -74.4936560776059 
2.24             0.0152860876250254 -16.8803996038305 0.991853463527538 -126.347790165697 0.991853463530503 -126.347790165688 0.0182798509977168 -74.5644570764882 
2.28             0.0163605257790939 -20.7805027416803 0.991712543736245 -128.601281457204 0.991712543739191 -128.601281457191 0.0192063489934103 -74.7422686794043 
2.32             0.0174695238760219 -24.5329778022818 0.991573953077655 -130.854821583658 0.991573953080585 -130.85482158364 0.0201677795514825 -75.0198477075773 
2.36             0.0186114410594793 -28.1553307159051 0.991437727682204 -133.108428235347 0.991437727685119 -133.108428235324 0.0211632516570778 -75.3903183440077 
2.4              0.0197847701420644 -31.6626407773691 0.991303886784434 -135.362118839484 0.991303886787334 -135.362118839457 0.022191916553447 -75.847234491254 
2.44             0.0209881138660133 -35.0679350014984 0.991172433324309 -137.615910488773 0.991172433327198 -137.61591048874 0.0232529584794074 -76.3846095602613 
2.48             0.0222201643107169 -38.3825091450161 0.991043354607496 -139.869819873275 0.991043354610377 -139.869819873236 0.024345584862934 -76.9969231796573 
2.52             0.0234796848347613 -41.6161992019943 0.990916623021093 -142.123863215727 0.990916623023967 -142.123863215684 0.0254690163154871 -77.6791121058164 
2.56             0.024765494040071 -44.777609050308 0.990792196801234 -144.378056210447 0.990792196804104 -144.378056210398 0.0266224766574468 -78.4265507854522 
2.6              0.0260764513463931 -47.8743003546124 0.990670020848984 -146.632413965942 0.990670020851853 -146.632413965887 0.0278051831238378 -79.2350255646447 
2.64             0.027411443854774 -50.9129505427199 0.990550027590839 -148.886950951383 0.990550027593709 -148.886950951323 0.0290163368436915 -80.1007054079736 
2.68             0.0287693742552485 -53.8994840699601 0.990432137880083 -151.14168094704 0.990432137882956 -151.141680946975 0.0302551136495278 -81.0201111344415 
2.72             0.0301491495966057 -56.8391814860103 0.990316261935168 -153.396616998813 0.990316261938047 -153.396616998744 0.0315206552504868 -81.9900845390621 
2.76             0.0315496707863337 -59.7367701301452 0.990202300311176 -155.651771376971 0.990202300314064 -155.651771376897 0.0328120607896904 -83.0077583021899 
2.8              0.0329698227286456 -62.5964996541201 0.990090144900331 -157.907155539192 0.990090144903229 -157.907155539113 0.0341283788005433 -84.0705272525083 
2.84             0.0344084650398541 -65.4222050252821 0.989979679957419 -160.162780098011 0.989979679960328 -160.162780097928 0.0354685995756906 -85.1760213115783 
2.88             0.0358644233050511 -68.2173591979228 0.989870783145894 -162.418654792753 0.989870783148815 -162.418654792667 0.0368316479646431 -86.3220802825345 
2.92             0.0373364808595284 -70.985117252426 0.98976332660033 -164.674788466024 0.989763326603264 -164.674788465934 0.0382163766204548 -87.5067305334058 
2.96             0.0388233710938219 -73.7283534803775 0.989657178000811 -166.931189044817 0.989657178003757 -166.931189044725 0.0396215597214375 -88.728163551882 
3                0.040323770293568 -76.4496926297185 0.98955220165475 -169.187863526289 0.989552201657708 -169.187863526194 0.0410458872000324 -89.984716302178 
3.04             0.0418362910351922 -79.1515363079879 0.989448259581585 -171.44481796823 0.989448259584554 -171.444817968133 0.0424879595171511 -91.2748532878415 
3.08             0.0433594761662847 -81.8360853654205 0.98934521259572 -173.702057484248 0.9893452125987  -173.702057484149 0.0439462830261122 -92.597150210977 
3.12             0.044891793405665 -84.5053589360456 0.989242921383045 -175.959586243672 0.989242921386033 -175.959586243572 0.0454192659754217 -93.9502791141143 
3.16             0.0464316306028073 -87.161210697968 0.989141247566339 -178.217407476154 0.989141247569333 -178.217407476053 0.0469052152037703 -95.3329948927201 
3.2              0.0479772916995762 -89.8053428187371 0.989040054754861 179.524476519059 0.989040054757856 179.52447651916  0.0484023335835031 -96.7441230719225 
3.24             0.0495269934391591 -92.4393179740429 0.98893920957341 177.266064359226 0.988939209576403 177.266064359327 0.0499087182702256 -98.1825487488045 
3.28             0.051078862867643 -95.0645697645612 0.988838582666216 175.007355559669 0.988838582669203 175.007355559769 0.0514223598159386 -99.6472066105204 
3.32             0.0526309356728452 -97.6824118038939 0.988738049671004 172.748350510849 0.988738049673981 172.748350510947 0.0529411422009772 -101.137071947713 
3.36             0.0541811554026798 -100.294045707983 0.988637492158707 170.489050451076 0.988637492161668 170.489050451173 0.0544628438359109 -102.65115259173 
3.4              0.0557273736014991 -102.90056818133 0.988536798534339 168.229457434982 0.98853679853728 168.229457435077 0.0559851395783531 -104.188481712599 
3.44             0.057267350897406 -105.502977366355 0.988435864894713 165.969574297869 0.988435864897627 165.969574297961 0.0575056038012688 -105.748111422349 
3.48             0.0587987590664962 -108.102178598071 0.988334595838745 163.709404616115 0.988334595841625 163.709404616205 0.0590217145388614 -107.329107134961 
3.52             0.0603191840913536 -110.698989686029 0.988232905226337 161.448952663809 0.988232905229178 161.448952663894 0.0605308587235494 -108.930542639876 
3.56             0.0618261302209467 -113.294145828302 0.988130716881944 159.188223365782 0.988130716884737 159.188223365864 0.0620303385130356 -110.551495850497 
3.6              0.0633170250274648 -115.888304247655 0.988027965239146 156.927222247283 0.988027965241886 156.927222247361 0.0635173786902745 -112.191045192611 
3.64             0.0647892254427621 -118.482048627291 0.987924595922827 154.665955380488 0.987924595925506 154.665955380562 0.064989135101545 -113.848266600015 
3.68             0.0662400247431464 -121.075893412443 0.987820566265728 152.404429328109 0.987820566268339 152.404429328178 0.0664427040792433 -115.522231085988 
3.72             0.0676666604365677 -123.670288034142 0.987715845756478 150.142651084335 0.987715845759014 150.1426510844   0.0678751327768699 -117.212002859659 
3.76             0.0690663229911353 -126.265621102565 0.987610416416465 147.880628013407 0.987610416418918 147.880628013467 0.0692834303245372 -118.916637955865 
3.8              0.0704361653287338 -128.862224609221 0.987504273103225 145.618367786066 0.987504273105589 145.618367786122 0.0706645796947475 -120.635183345857 
3.84             0.0717733129927221 -131.460378169776 0.987397423738352 143.355878314213 0.987397423740619 143.355878314264 0.0720155501507855 -122.366676494359 
3.88             0.0730748748847517 -134.060313332431 0.987289889458262 141.093167684048 0.987289889460426 141.093167684094 0.0733333101344657 -124.110145326084 
3.92             0.0743379544530766 -136.662217970389 0.987181704686529 138.83024408803  0.987181704688584 138.830244088071 0.0746148404367654 -125.864608562078 
3.96             0.0755596612038226 -139.266240771152 0.987072917126836 136.567115755959 0.987072917128774 136.567115755995 0.0758571474846141 -127.629076383223 
4                0.0767371223979395 -141.872495830026 0.986963587676001 134.303790885526 0.986963587677817 134.303790885557 0.0770572765702896 -129.40255137518 
4.04             0.0778674947903842 -144.481067350488 0.986853790256893 132.040277572649 0.986853790258583 132.040277572676 0.0782123248468639 -131.184029705952 
4.08             0.0789479762647708 -147.092014449919 0.986743611571482 129.776583741949 0.98674361157304 129.776583741971 0.0793194539142273 -132.972502484401 
4.12             0.0799758172165252 -149.705376065668 0.986633150774615 127.512717077686 0.986633150776038 127.512717077704 0.080375901825511 -134.766957245401 
4.16             0.0809483315406296 -152.32117595371 0.986522519069562 125.248684955516 0.986522519070846 125.24868495553  0.0813789943532246 -136.566379505095 
4.2              0.0818629070863782 -154.93942777011 0.986411839226741 122.984494375388 0.986411839227883 122.984494375398 0.0823261553679381 -138.369754327889 
4.24             0.0827170154511025 -157.560140224416 0.986301245027445 120.720151895932 0.986301245028443 120.720151895939 0.083214916199566 -140.176067845496 
4.28             0.0835082209974054 -160.183322293854 0.986190880634783 118.455663570664 0.986190880635635 118.455663570668 0.0840429238718042 -141.984308667465 
4.32             0.084234188993744 -162.808988487937 0.986080899894443 116.191034886327 0.98608089989515 116.191034886329 0.0848079481234504 -143.793469122235 
4.36             0.0848926927958865 -165.437164154856 0.985971465568262 113.926270703696 0.985971465568823 113.926270703695 0.0855078871555828 -145.602546267721 
4.4              0.0854816200063451 -168.067890823782 0.985862748503956 111.661375201147 0.985862748504374 111.661375201144 0.0861407720701375 -147.410542610722 
4.44             0.0859989775698735 -170.701231581098 0.985754926744751 109.396351821293 0.985754926745028 109.396351821289 0.0867047699926155 -149.216466474864 
4.48             0.0864428957849561 -173.337276483573 0.985648184582951 107.131203220965 0.98564818458309 107.13120322096  0.0871981858987078 -151.019331957257 
4.52             0.0868116312333571 -175.976148017612 0.9855427115619  104.865931224807 0.985542711561902 104.865931224801 0.0876194631909038 -152.818158414276 
4.56             0.0871035686517092 -178.618006621108 0.985438701431003 102.600536782746 0.985438701430875 102.60053678274  0.0879671830960056 -154.611969416748 
4.6              0.0873172217902989 178.736943706971 0.985336351058894 100.335019931565 0.985336351058642 100.335019931559 0.0882400629774259 -156.399791113993 
4.64             0.0874512333242188 176.088449674087 0.985235859310028 98.0693797607915 0.985235859309658 98.069379760786  0.0884369536767814 -158.180649944477 
4.68             0.0875043739005426 173.436202792038 0.985137425890298 95.8036143831079 0.985137425889815 95.8036143831031 0.0885568360173638 -159.953569627839 
4.72             0.0874755404218778 170.779833245292 0.985041250167489 93.5377209094467 0.9850412501669  93.537720909443  0.0885988166174393 -161.717567368551 
4.76             0.0873637536813965 168.118903454555 0.984947529972637 91.2716954289188 0.984947529971951 91.2716954289163 0.0885621231740197 -163.471649195008 
4.8              0.0871681554771989 165.452901242794 0.984856460388541 89.0055329936994 0.984856460387768 89.0055329936983 0.0884460993879099 -165.214804349041 
4.84             0.0868880053446914 162.781232490467 0.984768232531856 86.7392276089621 0.984768232531007 86.7392276089626 0.0882501997087649 -166.945998629197 
4.88             0.0865226770547497 160.103213142893 0.984683032335351 84.4727722279271 0.984683032334431 84.4727722279292 0.0879739840849801 -168.664166576124 
4.92             0.0860716550331006 157.418060404435 0.984601039337043 82.2061587520546 0.984601039336064 82.2061587520584 0.0876171129080279 -170.368202369319 
4.96             0.0855345308630264 154.724882920685 0.984522425483005 79.9393780363822 0.984522425481976 79.9393780363876 0.0871793423449702 -172.056949280671 
5                0.0849110000397299 152.022669709511 0.984447353950728 77.6724198999698 0.984447353949662 77.6724198999767 0.0866605202570576 -173.729187500561 
5.04             0.0842008591511996 149.310277553009 0.984375977999908 75.4052731413778 0.984375977998813 75.4052731413859 0.0860605829074265 -175.383620115778 
5.08             0.0834040036680355 146.58641650276  0.98430843985754 73.1379255590627 0.984308439856423 73.1379255590718 0.0853795526678929 -177.018856973663 
5.12             0.0825204265344773 143.849633077345 0.984244869644143 70.8703639765343 0.984244869643014 70.870363976544  0.0846175369448264 -178.633396111966 
5.16             0.0815502177660943 141.098290639962 0.984185384347834 68.6025742720689 0.984185384346702 68.6025742720786 0.0837747285583692 179.774397633241 
5.2              0.0804935652778267 138.330546330301 0.984130086852747 66.3345414127299 0.984130086851619 66.3345414127392 0.0828514078293728 178.206317311301 
5.24             0.0793507571912869 135.544323781938 0.984079065028129 64.0662494923905 0.98407906502701 64.0662494923986 0.0818479466561836 176.664342402364 
5.28             0.0781221859049809 132.73728067601  0.984032390884047 61.797681773401  0.984032390882941 61.7976817734072 0.0807648149011008 175.150671917013 
5.32             0.0768083542586588 129.906769952549 0.983990119799263 59.5288207314829 0.983990119798175 59.5288207314863 0.0796025894567437 173.667762892615 
5.36             0.0754098841877199 127.049793207893 0.983952289826254 57.2596481033697 0.983952289825182 57.2596481033694 0.0783619664292958 172.218375312229 
5.4              0.0739275283512587 124.162944430459 0.983918921077683 54.9901449366479 0.983918921076626 54.9901449366429 0.0770437769631886 170.805624695808 
5.44             0.072362185335838 121.242341742079 0.983890015197784 52.7202916411787 0.98389001519674 52.7202916411677 0.0756490073461744 169.433043886623 
5.48             0.0707149191971852 118.283544183541 0.983865554921016 50.4500680414077 0.983865554919978 50.4500680413897 0.0741788241825737 168.104655887682 
5.52             0.0689869843186439 115.281449765436 0.983845503719063 48.17945342879   0.983845503718019 48.1794534287637 0.0726346056157692 166.825060003729 
5.56             0.0671798568591661 112.230169938315 0.983829805535632 45.9084266134753 0.983829805534569 45.9084266134394 0.0710179798317514 165.599534023613 
5.6              0.0652952744641068 109.122874240182 0.983818384606539 43.6369659743126 0.983818384605443 43.6369659742656 0.0693308724005624 164.434155741765 
5.64             0.0633352864603472 105.951597051103 0.983811145360154 41.3650495061496 0.983811145359001 41.3650495060904 0.0675755644334985 163.335947764474 
5.68             0.0613023175119293 102.706995993403 0.983807972390349 39.0926548633192 0.983807972389113 39.0926548632464 0.0657547640783772 162.313050257646 
5.72             0.0591992487568852 99.3780484020386 0.983808730490619 36.8197593981207 0.983808730489269 36.819759398033  0.0638716945769261 161.374927015511 
5.76             0.0570295218992138 95.9516682748306 0.983813264733706 34.5463401930458 0.983813264732206 34.546340192942  0.0619302030075119 160.532610849407 
5.8              0.0547972737607644 92.4122210318217 0.983821400576043 32.2723740854367 0.983821400574353 32.2723740853158 0.0599348949766551 159.798994584894 
