! Multiline TRL de-embedded results 
! Powered by MTRL v0.1 based on Matlab. Written by Simon.
! 29-Mar-2016 20:38:35
# hz S ma R 50
1000000000   1.35045514e-02    -8.42244442e+01    9.98279938e-01    -2.51961065e+01    9.98279938e-01    -2.51961065e+01    1.14548058e-02    -1.50990450e+02    
1040000000   1.38592482e-02    -8.53707117e+01    9.98367546e-01    -2.61980311e+01    9.98367546e-01    -2.61980311e+01    1.12852202e-02    -1.52210641e+02    
1080000000   1.42139381e-02    -8.64278220e+01    9.98474492e-01    -2.71992673e+01    9.98474492e-01    -2.71992673e+01    1.10820289e-02    -1.53543670e+02    
1120000000   1.45719848e-02    -8.73974277e+01    9.98619325e-01    -2.81991600e+01    9.98619325e-01    -2.81991600e+01    1.08047115e-02    -1.55016866e+02    
1160000000   1.49368284e-02    -8.82843262e+01    9.98841367e-01    -2.91964485e+01    9.98841367e-01    -2.91964485e+01    1.03658505e-02    -1.56679350e+02    
1200000000   1.53118396e-02    -8.90958574e+01    9.99242956e-01    -3.01882958e+01    9.99242956e-01    -3.01882958e+01    9.54005433e-03    -1.58614355e+02    
1240000000   1.57001930e-02    -8.98412172e+01    1.00019925e+00    -3.11671480e+01    1.00019925e+00    -3.11671480e+01    7.53295351e-03    -1.60634945e+02    
1280000000   1.61048210e-02    -9.05297082e+01    1.00463789e+00    -3.21360781e+01    1.00463789e+00    -3.21360781e+01    2.51163710e-03    -4.72222205e+01    
1320000000   1.65302831e-02    -9.11846441e+01    9.94890595e-01    -3.37542353e+01    9.94890595e-01    -3.37542353e+01    2.92609003e-02    -1.34460662e+02    
1360000000   1.69738324e-02    -9.18006103e+01    9.95817375e-01    -3.44105329e+01    9.95817375e-01    -3.44105329e+01    1.95948999e-02    -1.53597057e+02    
1400000000   1.74409984e-02    -9.23992535e+01    9.96469528e-01    -3.53578890e+01    9.96469528e-01    -3.53578890e+01    1.76110461e-02    -1.58184355e+02    
1440000000   1.79322357e-02    -9.29922070e+01    9.96761657e-01    -3.63422195e+01    9.96761657e-01    -3.63422195e+01    1.69669276e-02    -1.60837397e+02    
1480000000   1.84482234e-02    -9.35909184e+01    9.96908779e-01    -3.73379521e+01    9.96908779e-01    -3.73379521e+01    1.67997372e-02    -1.62873641e+02    
1520000000   1.89892371e-02    -9.42061983e+01    9.96982778e-01    -3.83387194e+01    9.96982778e-01    -3.83387194e+01    1.68690036e-02    -1.64626566e+02    
1560000000   1.95551368e-02    -9.48480337e+01    9.97013554e-01    -3.93421913e+01    9.97013554e-01    -3.93421913e+01    1.70810384e-02    -1.66216460e+02    
1600000000   2.01454134e-02    -9.55256164e+01    9.97015746e-01    -4.03473029e+01    9.97015746e-01    -4.03473029e+01    1.73912021e-02    -1.67696405e+02    
1640000000   2.07592661e-02    -9.62475888e+01    9.96997518e-01    -4.13534860e+01    9.96997518e-01    -4.13534860e+01    1.77749322e-02    -1.69093457e+02    
1680000000   2.13957034e-02    -9.70226186e+01    9.96964050e-01    -4.23604005e+01    9.96964050e-01    -4.23604005e+01    1.82170481e-02    -1.70423271e+02    
1720000000   2.20536494e-02    -9.78605621e+01    9.96919184e-01    -4.33678253e+01    9.96919184e-01    -4.33678253e+01    1.87071762e-02    -1.71696116e+02    
1760000000   2.27319666e-02    -9.87748155e+01    9.96866408e-01    -4.43756161e+01    9.96866408e-01    -4.43756161e+01    1.92375790e-02    -1.72919619e+02    
1800000000   2.34290207e-02    -9.97872738e+01    9.96809667e-01    -4.53837028e+01    9.96809667e-01    -4.53837028e+01    1.98020525e-02    -1.74100110e+02    
1840000000   2.41401643e-02    -1.00939238e+02    9.96754330e-01    -4.63921475e+01    9.96754330e-01    -4.63921475e+01    2.03953489e-02    -1.75243411e+02    
1880000000   2.48457453e-02    -1.02314131e+02    9.96707981e-01    -4.74013691e+01    9.96707981e-01    -4.74013691e+01    2.10128621e-02    -1.76355633e+02    
1920000000   2.54567697e-02    -1.04053335e+02    9.96674846e-01    -4.84128666e+01    9.96674846e-01    -4.84128666e+01    2.16501518e-02    -1.77444817e+02    
1960000000   2.56654840e-02    -1.06015341e+02    9.96602570e-01    -4.94297585e+01    9.96602570e-01    -4.94297585e+01    2.23002470e-02    -1.78521788e+02    
2000000000   2.54625774e-02    -1.06569599e+02    9.96341474e-01    -5.04462498e+01    9.96341474e-01    -5.04462498e+01    2.29516632e-02    -1.79577526e+02    
2040000000   2.59036842e-02    -1.06075892e+02    9.96066050e-01    -5.14512450e+01    9.96066050e-01    -5.14512450e+01    2.36087991e-02    1.79406423e+02    
2080000000   2.67128256e-02    -1.06348863e+02    9.95902811e-01    -5.24539875e+01    9.95902811e-01    -5.24539875e+01    2.42737699e-02    1.78405902e+02    
2120000000   2.75021307e-02    -1.07133291e+02    9.95784635e-01    -5.34581883e+01    9.95784635e-01    -5.34581883e+01    2.49394894e-02    1.77410060e+02    
2160000000   2.82221594e-02    -1.08114544e+02    9.95679944e-01    -5.44634363e+01    9.95679944e-01    -5.44634363e+01    2.56008037e-02    1.76416855e+02    
2200000000   2.88835091e-02    -1.09170182e+02    9.95580917e-01    -5.54692321e+01    9.95580917e-01    -5.54692321e+01    2.62539357e-02    1.75424554e+02    
2240000000   2.94976560e-02    -1.10251735e+02    9.95486285e-01    -5.64753185e+01    9.95486285e-01    -5.64753185e+01    2.68956891e-02    1.74431112e+02    
2280000000   3.00720765e-02    -1.11336383e+02    9.95396425e-01    -5.74815856e+01    9.95396425e-01    -5.74815856e+01    2.75232514e-02    1.73434386e+02    
2320000000   3.06115738e-02    -1.12411022e+02    9.95312025e-01    -5.84880014e+01    9.95312025e-01    -5.84880014e+01    2.81341684e-02    1.72432253e+02    
2360000000   3.11195612e-02    -1.13466731e+02    9.95233702e-01    -5.94945766e+01    9.95233702e-01    -5.94945766e+01    2.87263601e-02    1.71422653e+02    
2400000000   3.15988447e-02    -1.14496716e+02    9.95161875e-01    -6.05013451e+01    9.95161875e-01    -6.05013451e+01    2.92981450e-02    1.70403600e+02    
2440000000   3.20520644e-02    -1.15495499e+02    9.95096739e-01    -6.15083530e+01    9.95096739e-01    -6.15083530e+01    2.98482614e-02    1.69373171e+02    
2480000000   3.24819318e-02    -1.16458613e+02    9.95038270e-01    -6.25156513e+01    9.95038270e-01    -6.25156513e+01    3.03758824e-02    1.68329494e+02    
2520000000   3.28913453e-02    -1.17382501e+02    9.94986245e-01    -6.35232913e+01    9.94986245e-01    -6.35232913e+01    3.08806245e-02    1.67270744e+02    
2560000000   3.32834301e-02    -1.18264499e+02    9.94940274e-01    -6.45313209e+01    9.94940274e-01    -6.45313209e+01    3.13625480e-02    1.66195131e+02    
2600000000   3.36615264e-02    -1.19102854e+02    9.94899838e-01    -6.55397823e+01    9.94899838e-01    -6.55397823e+01    3.18221494e-02    1.65100905e+02    
2640000000   3.40291435e-02    -1.19896748e+02    9.94864328e-01    -6.65487111e+01    9.94864328e-01    -6.65487111e+01    3.22603466e-02    1.63986369e+02    
2680000000   3.43898895e-02    -1.20646303e+02    9.94833081e-01    -6.75581346e+01    9.94833081e-01    -6.75581346e+01    3.26784570e-02    1.62849892e+02    
2720000000   3.47473846e-02    -1.21352573e+02    9.94805423e-01    -6.85680728e+01    9.94805423e-01    -6.85680728e+01    3.30781686e-02    1.61689939e+02    
2760000000   3.39065958e-02    -1.19990058e+02    9.94524868e-01    -6.96445347e+01    9.94524868e-01    -6.96445347e+01    3.19677769e-02    1.58258013e+02    
2800000000   3.44818475e-02    -1.20445825e+02    9.94512439e-01    -7.06539809e+01    9.94512439e-01    -7.06539809e+01    3.24949824e-02    1.56961213e+02    
2840000000   3.50740855e-02    -1.20924522e+02    9.94504895e-01    -7.16638846e+01    9.94504895e-01    -7.16638846e+01    3.30220347e-02    1.55675347e+02    
2880000000   3.56804391e-02    -1.21428848e+02    9.94501189e-01    -7.26742632e+01    9.94501189e-01    -7.26742632e+01    3.35490559e-02    1.54399231e+02    
2920000000   3.62977767e-02    -1.21960341e+02    9.94500296e-01    -7.36851258e+01    9.94500296e-01    -7.36851258e+01    3.40761352e-02    1.53131532e+02    
2960000000   3.69228100e-02    -1.22519452e+02    9.94501230e-01    -7.46964732e+01    9.94501230e-01    -7.46964732e+01    3.46033240e-02    1.51870784e+02    
3000000000   3.75521974e-02    -1.23105650e+02    9.94503055e-01    -7.57082991e+01    9.94503055e-01    -7.57082991e+01    3.51306323e-02    1.50615420e+02    
3040000000   3.81826438e-02    -1.23717534e+02    9.94504903e-01    -7.67205902e+01    9.94504903e-01    -7.67205902e+01    3.56580272e-02    1.49363793e+02    
3080000000   3.88109952e-02    -1.24352961e+02    9.94505981e-01    -7.77333274e+01    9.94505981e-01    -7.77333274e+01    3.61854326e-02    1.48114200e+02    
3120000000   3.94343246e-02    -1.25009186e+02    9.94505586e-01    -7.87464865e+01    9.94505586e-01    -7.87464865e+01    3.67127314e-02    1.46864909e+02    
3160000000   4.00500073e-02    -1.25682993e+02    9.94503112e-01    -7.97600391e+01    9.94503112e-01    -7.97600391e+01    3.72397686e-02    1.45614181e+02    
3200000000   4.06557849e-02    -1.26370831e+02    9.94498059e-01    -8.07739537e+01    9.94498059e-01    -8.07739537e+01    3.77663564e-02    1.44360299e+02    
3240000000   4.12498154e-02    -1.27068949e+02    9.94490033e-01    -8.17881963e+01    9.94490033e-01    -8.17881963e+01    3.82922807e-02    1.43101587e+02    
3280000000   4.18307094e-02    -1.27773517e+02    9.94478753e-01    -8.28027320e+01    9.94478753e-01    -8.28027320e+01    3.88173084e-02    1.41836435e+02    
3320000000   4.23975517e-02    -1.28480741e+02    9.94464050e-01    -8.38175255e+01    9.94464050e-01    -8.38175255e+01    3.93411965e-02    1.40563322e+02    
3360000000   4.29499080e-02    -1.29186970e+02    9.94445860e-01    -8.48325424e+01    9.94445860e-01    -8.48325424e+01    3.98637013e-02    1.39280832e+02    
3400000000   4.34878169e-02    -1.29888794e+02    9.94424222e-01    -8.58477501e+01    9.94424222e-01    -8.58477501e+01    4.03845874e-02    1.37987679e+02    
3440000000   4.40117679e-02    -1.30583120e+02    9.94399268e-01    -8.68631186e+01    9.94399268e-01    -8.68631186e+01    4.09036379e-02    1.36682717e+02    
3480000000   4.45226664e-02    -1.31267247e+02    9.94371213e-01    -8.78786211e+01    9.94371213e-01    -8.78786211e+01    4.14206631e-02    1.35364960e+02    
3520000000   4.50217870e-02    -1.31938920e+02    9.94340343e-01    -8.88942348e+01    9.94340343e-01    -8.88942348e+01    4.19355085e-02    1.34033590e+02    
3560000000   4.55107166e-02    -1.32596375e+02    9.94306999e-01    -8.99099415e+01    9.94306999e-01    -8.99099415e+01    4.24480623e-02    1.32687967e+02    
3600000000   4.59912890e-02    -1.33238358e+02    9.94271566e-01    -9.09257273e+01    9.94271566e-01    -9.09257273e+01    4.29582598e-02    1.31327637e+02    
3640000000   4.64655147e-02    -1.33864144e+02    9.94234453e-01    -9.19415834e+01    9.94234453e-01    -9.19415834e+01    4.34660880e-02    1.29952332e+02    
3680000000   4.69355059e-02    -1.34473527e+02    9.94196083e-01    -9.29575057e+01    9.94196083e-01    -9.29575057e+01    4.39715860e-02    1.28561972e+02    
3720000000   4.74034016e-02    -1.35066803e+02    9.94156876e-01    -9.39734946e+01    9.94156876e-01    -9.39734946e+01    4.44748448e-02    1.27156659e+02    
3760000000   4.78712935e-02    -1.35644730e+02    9.94117235e-01    -9.49895548e+01    9.94117235e-01    -9.49895548e+01    4.49760046e-02    1.25736674e+02    
3800000000   4.83411570e-02    -1.36208486e+02    9.94077539e-01    -9.60056947e+01    9.94077539e-01    -9.60056947e+01    4.54752495e-02    1.24302463e+02    
3840000000   4.88147874e-02    -1.36759603e+02    9.94038126e-01    -9.70219260e+01    9.94038126e-01    -9.70219260e+01    4.59728009e-02    1.22854627e+02    
3880000000   4.92937457e-02    -1.37299901e+02    9.93999290e-01    -9.80382630e+01    9.93999290e-01    -9.80382630e+01    4.64689096e-02    1.21393903e+02    
3920000000   4.97793138e-02    -1.37831409e+02    9.93961276e-01    -9.90547223e+01    9.93961276e-01    -9.90547223e+01    4.69638467e-02    1.19921151e+02    
3960000000   5.02724617e-02    -1.38356286e+02    9.93924270e-01    -1.00071322e+02    9.93924270e-01    -1.00071322e+02    4.74578933e-02    1.18437332e+02    
4000000000   5.07738262e-02    -1.38876739e+02    9.93888402e-01    -1.01088079e+02    9.93888402e-01    -1.01088079e+02    4.79513312e-02    1.16943485e+02    
4040000000   5.12837028e-02    -1.39394945e+02    9.93853741e-01    -1.02105014e+02    9.93853741e-01    -1.02105014e+02    4.84444331e-02    1.15440709e+02    
4080000000   5.18020493e-02    -1.39912980e+02    9.93820300e-01    -1.03122144e+02    9.93820300e-01    -1.03122144e+02    4.89374544e-02    1.13930138e+02    
4120000000   5.23285015e-02    -1.40432748e+02    9.93788035e-01    -1.04139485e+02    9.93788035e-01    -1.04139485e+02    4.94306252e-02    1.12412923e+02    
4160000000   5.28623988e-02    -1.40955931e+02    9.93756849e-01    -1.05157055e+02    9.93756849e-01    -1.05157055e+02    4.99241453e-02    1.10890206e+02    
4200000000   5.34028190e-02    -1.41483944e+02    9.93726596e-01    -1.06174866e+02    9.93726596e-01    -1.06174866e+02    5.04181797e-02    1.09363107e+02    
4240000000   5.39486211e-02    -1.42017899e+02    9.93697087e-01    -1.07192930e+02    9.93697087e-01    -1.07192930e+02    5.09128573e-02    1.07832699e+02    
4280000000   5.44984926e-02    -1.42558589e+02    9.93668095e-01    -1.08211255e+02    9.93668095e-01    -1.08211255e+02    5.14082705e-02    1.06299999e+02    
4320000000   5.50510018e-02    -1.43106481e+02    9.93639360e-01    -1.09229847e+02    9.93639360e-01    -1.09229847e+02    5.19044774e-02    1.04765951e+02    
4360000000   5.56046509e-02    -1.43661714e+02    9.93610599e-01    -1.10248709e+02    9.93610599e-01    -1.10248709e+02    5.24015058e-02    1.03231414e+02    
4400000000   5.61579296e-02    -1.44224118e+02    9.93581510e-01    -1.11267841e+02    9.93581510e-01    -1.11267841e+02    5.28993584e-02    1.01697157e+02    
4440000000   5.67093679e-02    -1.44793233e+02    9.93551781e-01    -1.12287240e+02    9.93551781e-01    -1.12287240e+02    5.33980194e-02    1.00163852e+02    
4480000000   5.72575846e-02    -1.45368341e+02    9.93521099e-01    -1.13306898e+02    9.93521099e-01    -1.13306898e+02    5.38974626e-02    9.86320680e+01    
4520000000   5.78013330e-02    -1.45948498e+02    9.93489152e-01    -1.14326807e+02    9.93489152e-01    -1.14326807e+02    5.43976587e-02    9.71022735e+01    
4560000000   5.83395406e-02    -1.46532576e+02    9.93455642e-01    -1.15346955e+02    9.93455642e-01    -1.15346955e+02    5.48985845e-02    9.55748342e+01    
4600000000   5.88713428e-02    -1.47119307e+02    9.93420288e-01    -1.16367325e+02    9.93420288e-01    -1.16367325e+02    5.54002305e-02    9.40500173e+01    
4640000000   5.93961102e-02    -1.47707326e+02    9.93382835e-01    -1.17387903e+02    9.93382835e-01    -1.17387903e+02    5.59026085e-02    9.25279952e+01    
4680000000   5.99134687e-02    -1.48295215e+02    9.93343055e-01    -1.18408667e+02    9.93343055e-01    -1.18408667e+02    5.64057589e-02    9.10088509e+01    
4720000000   6.04233115e-02    -1.48881549e+02    9.93300755e-01    -1.19429599e+02    9.93300755e-01    -1.19429599e+02    5.69097558e-02    8.94925849e+01    
4760000000   6.09258045e-02    -1.49464942e+02    9.93255779e-01    -1.20450675e+02    9.93255779e-01    -1.20450675e+02    5.74147115e-02    8.79791230e+01    
4800000000   6.14213830e-02    -1.50044084e+02    9.93208008e-01    -1.21471875e+02    9.93208008e-01    -1.21471875e+02    5.79207798e-02    8.64683247e+01    
4840000000   6.19107416e-02    -1.50617782e+02    9.93157364e-01    -1.22493175e+02    9.93157364e-01    -1.22493175e+02    5.84281574e-02    8.49599928e+01    
4880000000   6.23948158e-02    -1.51184996e+02    9.93103808e-01    -1.23514553e+02    9.93103808e-01    -1.23514553e+02    5.89370843e-02    8.34538828e+01    
4920000000   6.28747576e-02    -1.51744865e+02    9.93047334e-01    -1.24535987e+02    9.93047334e-01    -1.24535987e+02    5.94478428e-02    8.19497128e+01    
4960000000   6.33519036e-02    -1.52296739e+02    9.92987973e-01    -1.25557457e+02    9.92987973e-01    -1.25557457e+02    5.99607552e-02    8.04471735e+01    
5000000000   6.38277380e-02    -1.52840192e+02    9.92925785e-01    -1.26578943e+02    9.92925785e-01    -1.26578943e+02    6.04761803e-02    7.89459376e+01    
5040000000   6.43038506e-02    -1.53375039e+02    9.92860854e-01    -1.27600426e+02    9.92860854e-01    -1.27600426e+02    6.09945084e-02    7.74456696e+01    
5080000000   6.47818915e-02    -1.53901339e+02    9.92793285e-01    -1.28621891e+02    9.92793285e-01    -1.28621891e+02    6.15161557e-02    7.59460343e+01    
5120000000   6.52635230e-02    -1.54419396e+02    9.92723198e-01    -1.29643323e+02    9.92723198e-01    -1.29643323e+02    6.20415572e-02    7.44467063e+01    
5160000000   6.57503715e-02    -1.54929745e+02    9.92650718e-01    -1.30664709e+02    9.92650718e-01    -1.30664709e+02    6.25711585e-02    7.29473772e+01    
5200000000   6.62439802e-02    -1.55433141e+02    9.92575979e-01    -1.31686038e+02    9.92575979e-01    -1.31686038e+02    6.31054081e-02    7.14477648e+01    
5240000000   6.67457639e-02    -1.55930531e+02    9.92499108e-01    -1.32707300e+02    9.92499108e-01    -1.32707300e+02    6.36447482e-02    6.99476192e+01    
5280000000   6.72569687e-02    -1.56423025e+02    9.92420227e-01    -1.33728489e+02    9.92420227e-01    -1.33728489e+02    6.41896057e-02    6.84467304e+01    
5320000000   6.77786366e-02    -1.56911864e+02    9.92339450e-01    -1.34749597e+02    9.92339450e-01    -1.34749597e+02    6.47403835e-02    6.69449342e+01    
5360000000   6.83115771e-02    -1.57398379e+02    9.92256874e-01    -1.35770619e+02    9.92256874e-01    -1.35770619e+02    6.52974524e-02    6.54421174e+01    
5400000000   6.88563467e-02    -1.57883950e+02    9.92172583e-01    -1.36791551e+02    9.92172583e-01    -1.36791551e+02    6.58611426e-02    6.39382218e+01    
5440000000   6.94132366e-02    -1.58369966e+02    9.92086643e-01    -1.37812388e+02    9.92086643e-01    -1.37812388e+02    6.64317371e-02    6.24332479e+01    
5480000000   7.35951914e-02    -1.59717159e+02    9.91771590e-01    -1.38788091e+02    9.91771590e-01    -1.38788091e+02    7.08017039e-02    6.29186000e+01    
5520000000   7.41898043e-02    -1.60299852e+02    9.91682662e-01    -1.39808059e+02    9.91682662e-01    -1.39808059e+02    7.13651695e-02    6.14664255e+01    
5560000000   7.47830005e-02    -1.60881453e+02    9.91592274e-01    -1.40827972e+02    9.91592274e-01    -1.40827972e+02    7.19210092e-02    6.00156182e+01    
5600000000   7.53750968e-02    -1.61462186e+02    9.91500437e-01    -1.41847819e+02    9.91500437e-01    -1.41847819e+02    7.24692437e-02    5.85664391e+01    
5640000000   7.59664028e-02    -1.62042306e+02    9.91407163e-01    -1.42867590e+02    9.91407163e-01    -1.42867590e+02    7.30099396e-02    5.71191315e+01    
5680000000   7.65572137e-02    -1.62622098e+02    9.91312460e-01    -1.43887276e+02    9.91312460e-01    -1.43887276e+02    7.35432084e-02    5.56739198e+01    
5720000000   7.71478028e-02    -1.63201876e+02    9.91216337e-01    -1.44906867e+02    9.91216337e-01    -1.44906867e+02    7.40692058e-02    5.42310090e+01    
5760000000   7.77384130e-02    -1.63781982e+02    9.91118797e-01    -1.45926351e+02    9.91118797e-01    -1.45926351e+02    7.45881323e-02    5.27905840e+01    
5800000000   7.83292483e-02    -1.64362779e+02    9.91019844e-01    -1.46945720e+02    9.91019844e-01    -1.46945720e+02    7.51002333e-02    5.13528089e+01    
5840000000   7.89204650e-02    -1.64944651e+02    9.90919478e-01    -1.47964962e+02    9.90919478e-01    -1.47964962e+02    7.56058004e-02    4.99178262e+01    
5880000000   7.95121631e-02    -1.65527993e+02    9.90817702e-01    -1.48984066e+02    9.90817702e-01    -1.48984066e+02    7.61051729e-02    4.84857545e+01    
