! Multiline TRL de-embedded results 
! Powered by MTRL v0.1 based on Matlab. Written by Simon.
! 29-Mar-2016 20:38:10
# hz S ma R 50
1000000000   8.77217412e-03    -8.45225704e+01    9.98382177e-01    -2.49264382e+01    9.98382177e-01    -2.49264382e+01    6.79811188e-03    -1.52609806e+02    
1040000000   8.94142098e-03    -8.82347817e+01    9.98481215e-01    -2.59174444e+01    9.98481215e-01    -2.59174444e+01    7.01165481e-03    -1.53223529e+02    
1080000000   9.09677408e-03    -9.20725804e+01    9.98599945e-01    -2.69077343e+01    9.98599945e-01    -2.69077343e+01    7.22450489e-03    -1.53920595e+02    
1120000000   9.23124501e-03    -9.62996009e+01    9.98757376e-01    -2.78966400e+01    9.98757376e-01    -2.78966400e+01    7.43906566e-03    -1.54682897e+02    
1160000000   9.33366192e-03    -1.01457417e+02    9.98993803e-01    -2.88828799e+01    9.98993803e-01    -2.88828799e+01    7.65799535e-03    -1.55493372e+02    
1200000000   9.38705614e-03    -1.08921357e+02    9.99413976e-01    -2.98635873e+01    9.99413976e-01    -2.98635873e+01    7.88489543e-03    -1.56333468e+02    
1240000000   9.41017538e-03    -1.23536134e+02    1.00040066e+00    -3.08312272e+01    1.00040066e+00    -3.08312272e+01    8.12788570e-03    -1.57176568e+02    
1280000000   1.12034163e-02    -1.75768109e+02    1.00489856e+00    -3.17905440e+01    1.00489856e+00    -3.17905440e+01    8.43840124e-03    -1.58021301e+02    
1320000000   1.89640888e-02    -2.22072222e+01    9.95093258e-01    -3.34178347e+01    9.95093258e-01    -3.34178347e+01    8.51834262e-03    -1.60207364e+02    
1360000000   1.32592268e-02    -6.60594440e+01    9.95926942e-01    -3.40486070e+01    9.95926942e-01    -3.40486070e+01    8.78541191e-03    -1.60406132e+02    
1400000000   1.24514790e-02    -7.81694466e+01    9.96600936e-01    -3.49826151e+01    9.96600936e-01    -3.49826151e+01    9.06190308e-03    -1.61200761e+02    
1440000000   1.22991809e-02    -8.41454114e+01    9.96907489e-01    -3.59551329e+01    9.96907489e-01    -3.59551329e+01    9.34416628e-03    -1.62055987e+02    
1480000000   1.23548893e-02    -8.78701733e+01    9.97064970e-01    -3.69394720e+01    9.97064970e-01    -3.69394720e+01    9.63622414e-03    -1.62911561e+02    
1520000000   1.25107668e-02    -9.05071350e+01    9.97147019e-01    -3.79290085e+01    9.97147019e-01    -3.79290085e+01    9.93954212e-03    -1.63747774e+02    
1560000000   1.27297932e-02    -9.25343258e+01    9.97184325e-01    -3.89213243e+01    9.97184325e-01    -3.89213243e+01    1.02547280e-02    -1.64553696e+02    
1600000000   1.29965450e-02    -9.41917401e+01    9.97191913e-01    -3.99153168e+01    9.97191913e-01    -3.99153168e+01    1.05820421e-02    -1.65321188e+02    
1640000000   1.33035850e-02    -9.56187063e+01    9.97178145e-01    -4.09104002e+01    9.97178145e-01    -4.09104002e+01    1.09216512e-02    -1.66042918e+02    
1680000000   1.36466313e-02    -9.69053859e+01    9.97148286e-01    -4.19062260e+01    9.97148286e-01    -4.19062260e+01    1.12738808e-02    -1.66711217e+02    
1720000000   1.40225254e-02    -9.81147654e+01    9.97106170e-01    -4.29025704e+01    9.97106170e-01    -4.29025704e+01    1.16396259e-02    -1.67316922e+02    
1760000000   1.44282788e-02    -9.92929313e+01    9.97055162e-01    -4.38992898e+01    9.97055162e-01    -4.38992898e+01    1.20211850e-02    -1.67847963e+02    
1800000000   1.48606031e-02    -1.00474217e+02    9.96998884e-01    -4.48963173e+01    9.96998884e-01    -4.48963173e+01    1.24241753e-02    -1.68287948e+02    
1840000000   1.53156909e-02    -1.01683972e+02    9.96941959e-01    -4.58937146e+01    9.96941959e-01    -4.58937146e+01    1.28623346e-02    -1.68617951e+02    
1880000000   1.57891392e-02    -1.02940187e+02    9.96890303e-01    -4.68918699e+01    9.96890303e-01    -4.68918699e+01    1.33700317e-02    -1.68841274e+02    
1920000000   1.62759662e-02    -1.04254495e+02    9.96844989e-01    -4.78920891e+01    9.96844989e-01    -4.78920891e+01    1.40272983e-02    -1.69140183e+02    
1960000000   1.67707864e-02    -1.05632744e+02    9.96755253e-01    -4.88967437e+01    9.96755253e-01    -4.88967437e+01    1.48919094e-02    -1.70465891e+02    
2000000000   1.72682781e-02    -1.07076763e+02    9.96502160e-01    -4.98999277e+01    9.96502160e-01    -4.98999277e+01    1.54377191e-02    -1.73604980e+02    
2040000000   1.77624551e-02    -1.08586518e+02    9.96256448e-01    -5.08930505e+01    9.96256448e-01    -5.08930505e+01    1.54135496e-02    -1.75593001e+02    
2080000000   1.82469125e-02    -1.10156179e+02    9.96111737e-01    -5.18848392e+01    9.96111737e-01    -5.18848392e+01    1.54581360e-02    -1.76138922e+02    
2120000000   1.87159247e-02    -1.11777005e+02    9.96003615e-01    -5.28781193e+01    9.96003615e-01    -5.28781193e+01    1.56486922e-02    -1.76360764e+02    
2160000000   1.91641582e-02    -1.13438772e+02    9.95905661e-01    -5.38723495e+01    9.95905661e-01    -5.38723495e+01    1.59118604e-02    -1.76583697e+02    
2200000000   1.95867657e-02    -1.15129769e+02    9.95812231e-01    -5.48670516e+01    9.95812231e-01    -5.48670516e+01    1.62053205e-02    -1.76857485e+02    
2240000000   1.99795663e-02    -1.16837147e+02    9.95722940e-01    -5.58619986e+01    9.95722940e-01    -5.58619986e+01    1.65088123e-02    -1.77180635e+02    
2280000000   2.03391900e-02    -1.18547334e+02    9.95638558e-01    -5.68571030e+01    9.95638558e-01    -5.68571030e+01    1.68119734e-02    -1.77546036e+02    
2320000000   2.06631869e-02    -1.20246427e+02    9.95559971e-01    -5.78523495e+01    9.95559971e-01    -5.78523495e+01    1.71089413e-02    -1.77948702e+02    
2360000000   2.09501004e-02    -1.21920543e+02    9.95487895e-01    -5.88477609e+01    9.95487895e-01    -5.88477609e+01    1.73960866e-02    -1.78386337e+02    
2400000000   2.11995049e-02    -1.23556159e+02    9.95422804e-01    -5.98433803e+01    9.95422804e-01    -5.98433803e+01    1.76710174e-02    -1.78858749e+02    
2440000000   2.14120045e-02    -1.25140405e+02    9.95364924e-01    -6.08392608e+01    9.95364924e-01    -6.08392608e+01    1.79321185e-02    -1.79367246e+02    
2480000000   2.15891955e-02    -1.26661357e+02    9.95314248e-01    -6.18354587e+01    9.95314248e-01    -6.18354587e+01    1.81783282e-02    -1.79914184e+02    
2520000000   2.17335940e-02    -1.28108290e+02    9.95270563e-01    -6.28320294e+01    9.95270563e-01    -6.28320294e+01    1.84090297e-02    1.79497354e+02    
2560000000   2.18485322e-02    -1.29471905e+02    9.95233494e-01    -6.38290235e+01    9.95233494e-01    -6.38290235e+01    1.86239973e-02    1.78863788e+02    
2600000000   2.19380292e-02    -1.30744537e+02    9.95202535e-01    -6.48264854e+01    9.95202535e-01    -6.48264854e+01    1.88233730e-02    1.78181220e+02    
2640000000   2.20066435e-02    -1.31920307e+02    9.95177099e-01    -6.58244520e+01    9.95177099e-01    -6.58244520e+01    1.90076568e-02    1.77445581e+02    
2680000000   2.20593147e-02    -1.32995238e+02    9.95156553e-01    -6.68229517e+01    9.95156553e-01    -6.68229517e+01    1.91777049e-02    1.76652755e+02    
2720000000   2.21012025e-02    -1.33967316e+02    9.95140252e-01    -6.78220054e+01    9.95140252e-01    -6.78220054e+01    1.93347289e-02    1.75798716e+02    
2760000000   2.31907605e-02    -1.27712915e+02    9.94778661e-01    -6.88826587e+01    9.94778661e-01    -6.88826587e+01    1.89425543e-02    1.67695814e+02    
2800000000   2.34958359e-02    -1.28645339e+02    9.94783119e-01    -6.98802765e+01    9.94783119e-01    -6.98802765e+01    1.93853488e-02    1.66846131e+02    
2840000000   2.38012294e-02    -1.29548453e+02    9.94793827e-01    -7.08784378e+01    9.94793827e-01    -7.08784378e+01    1.98328692e-02    1.65987142e+02    
2880000000   2.41087099e-02    -1.30425012e+02    9.94809523e-01    -7.18771689e+01    9.94809523e-01    -7.18771689e+01    2.02836417e-02    1.65117759e+02    
2920000000   2.44198125e-02    -1.31278378e+02    9.94828961e-01    -7.28764850e+01    9.94828961e-01    -7.28764850e+01    2.07362313e-02    1.64237031e+02    
2960000000   2.47357882e-02    -1.32112353e+02    9.94850926e-01    -7.38763911e+01    9.94850926e-01    -7.38763911e+01    2.11892397e-02    1.63344119e+02    
3000000000   2.50575650e-02    -1.32931002e+02    9.94874254e-01    -7.48768825e+01    9.94874254e-01    -7.48768825e+01    2.16413071e-02    1.62438281e+02    
3040000000   2.53857218e-02    -1.33738476e+02    9.94897857e-01    -7.58779457e+01    9.94897857e-01    -7.58779457e+01    2.20911172e-02    1.61518854e+02    
3080000000   2.57204767e-02    -1.34538842e+02    9.94920734e-01    -7.68795591e+01    9.94920734e-01    -7.68795591e+01    2.25374055e-02    1.60585243e+02    
3120000000   2.60616888e-02    -1.35335919e+02    9.94941988e-01    -7.78816943e+01    9.94941988e-01    -7.78816943e+01    2.29789689e-02    1.59636913e+02    
3160000000   2.64088744e-02    -1.36133139e+02    9.94960842e-01    -7.88843168e+01    9.94960842e-01    -7.88843168e+01    2.34146775e-02    1.58673377e+02    
3200000000   2.67612363e-02    -1.36933427e+02    9.94976649e-01    -7.98873875e+01    9.94976649e-01    -7.98873875e+01    2.38434873e-02    1.57694189e+02    
3240000000   2.71177049e-02    -1.37739104e+02    9.94988899e-01    -8.08908641e+01    9.94988899e-01    -8.08908641e+01    2.42644533e-02    1.56698941e+02    
3280000000   2.74769903e-02    -1.38551826e+02    9.94997224e-01    -8.18947022e+01    9.94997224e-01    -8.18947022e+01    2.46767428e-02    1.55687256e+02    
3320000000   2.78376421e-02    -1.39372552e+02    9.95001397e-01    -8.28988565e+01    9.95001397e-01    -8.28988565e+01    2.50796476e-02    1.54658791e+02    
3360000000   2.81981153e-02    -1.40201538e+02    9.95001332e-01    -8.39032828e+01    9.95001332e-01    -8.39032828e+01    2.54725959e-02    1.53613229e+02    
3400000000   2.85568393e-02    -1.41038365e+02    9.94997074e-01    -8.49079386e+01    9.94997074e-01    -8.49079386e+01    2.58551620e-02    1.52550290e+02    
3440000000   2.89122874e-02    -1.41881987e+02    9.94988790e-01    -8.59127846e+01    9.94988790e-01    -8.59127846e+01    2.62270738e-02    1.51469729e+02    
3480000000   2.92630440e-02    -1.42730807e+02    9.94976755e-01    -8.69177856e+01    9.94976755e-01    -8.69177856e+01    2.65882185e-02    1.50371346e+02    
3520000000   2.96078663e-02    -1.43582764e+02    9.94961333e-01    -8.79229116e+01    9.94961333e-01    -8.79229116e+01    2.69386450e-02    1.49254993e+02    
3560000000   2.99457397e-02    -1.44435438e+02    9.94942962e-01    -8.89281380e+01    9.94942962e-01    -8.89281380e+01    2.72785630e-02    1.48120584e+02    
3600000000   3.02759229e-02    -1.45286167e+02    9.94922132e-01    -8.99334462e+01    9.94922132e-01    -8.99334462e+01    2.76083393e-02    1.46968110e+02    
3640000000   3.05979822e-02    -1.46132160e+02    9.94899361e-01    -9.09388239e+01    9.94899361e-01    -9.09388239e+01    2.79284909e-02    1.45797646e+02    
3680000000   3.09118134e-02    -1.46970621e+02    9.94875183e-01    -9.19442650e+01    9.94875183e-01    -9.19442650e+01    2.82396741e-02    1.44609369e+02    
3720000000   3.12176506e-02    -1.47798864e+02    9.94850119e-01    -9.29497691e+01    9.94850119e-01    -9.29497691e+01    2.85426713e-02    1.43403566e+02    
3760000000   3.15160615e-02    -1.48614426e+02    9.94824664e-01    -9.39553412e+01    9.94824664e-01    -9.39553412e+01    2.88383746e-02    1.42180650e+02    
3800000000   3.18079294e-02    -1.49415167e+02    9.94799273e-01    -9.49609911e+01    9.94799273e-01    -9.49609911e+01    2.91277675e-02    1.40941162e+02    
3840000000   3.20944224e-02    -1.50199359e+02    9.94774344e-01    -9.59667326e+01    9.94774344e-01    -9.59667326e+01    2.94119035e-02    1.39685783e+02    
3880000000   3.23769521e-02    -1.50965762e+02    9.94750206e-01    -9.69725825e+01    9.94750206e-01    -9.69725825e+01    2.96918849e-02    1.38415330e+02    
3920000000   3.26571213e-02    -1.51713674e+02    9.94727120e-01    -9.79785602e+01    9.94727120e-01    -9.79785602e+01    2.99688393e-02    1.37130761e+02    
3960000000   3.29366648e-02    -1.52442970e+02    9.94705266e-01    -9.89846858e+01    9.94705266e-01    -9.89846858e+01    3.02438970e-02    1.35833164e+02    
4000000000   3.32173844e-02    -1.53154114e+02    9.94684744e-01    -9.99909803e+01    9.94684744e-01    -9.99909803e+01    3.05181684e-02    1.34523744e+02    
4040000000   3.35010802e-02    -1.53848152e+02    9.94665576e-01    -1.00997464e+02    9.94665576e-01    -1.00997464e+02    3.07927227e-02    1.33203814e+02    
4080000000   3.37894823e-02    -1.54526675e+02    9.94647711e-01    -1.02004156e+02    9.94647711e-01    -1.02004156e+02    3.10685679e-02    1.31874768e+02    
4120000000   3.40841841e-02    -1.55191767e+02    9.94631025e-01    -1.03011073e+02    9.94631025e-01    -1.03011073e+02    3.13466341e-02    1.30538063e+02    
4160000000   3.43865802e-02    -1.55845933e+02    9.94615332e-01    -1.04018230e+02    9.94615332e-01    -1.04018230e+02    3.16277582e-02    1.29195191e+02    
4200000000   3.46978119e-02    -1.56492005e+02    9.94600394e-01    -1.05025637e+02    9.94600394e-01    -1.05025637e+02    3.19126724e-02    1.27847651e+02    
4240000000   3.50187221e-02    -1.57133035e+02    9.94585924e-01    -1.06033303e+02    9.94585924e-01    -1.06033303e+02    3.22019959e-02    1.26496920e+02    
4280000000   3.53498206e-02    -1.57772183e+02    9.94571606e-01    -1.07041230e+02    9.94571606e-01    -1.07041230e+02    3.24962292e-02    1.25144426e+02    
4320000000   3.56912631e-02    -1.58412600e+02    9.94557098e-01    -1.08049420e+02    9.94557098e-01    -1.08049420e+02    3.27957530e-02    1.23791524e+02    
4360000000   3.60428434e-02    -1.59057309e+02    9.94542047e-01    -1.09057866e+02    9.94542047e-01    -1.09057866e+02    3.31008285e-02    1.22439464e+02    
4400000000   3.64039983e-02    -1.59709093e+02    9.94526098e-01    -1.10066562e+02    9.94526098e-01    -1.10066562e+02    3.34116020e-02    1.21089379e+02    
4440000000   3.67738279e-02    -1.60370400e+02    9.94508908e-01    -1.11075494e+02    9.94508908e-01    -1.11075494e+02    3.37281116e-02    1.19742261e+02    
4480000000   3.71511276e-02    -1.61043258e+02    9.94490154e-01    -1.12084647e+02    9.94490154e-01    -1.12084647e+02    3.40502955e-02    1.18398950e+02    
4520000000   3.75344315e-02    -1.61729208e+02    9.94469541e-01    -1.13094001e+02    9.94469541e-01    -1.13094001e+02    3.43780027e-02    1.17060126e+02    
4560000000   3.79220663e-02    -1.62429259e+02    9.94446814e-01    -1.14103536e+02    9.94446814e-01    -1.14103536e+02    3.47110047e-02    1.15726301e+02    
4600000000   3.83122124e-02    -1.63143866e+02    9.94421759e-01    -1.15113226e+02    9.94421759e-01    -1.15113226e+02    3.50490079e-02    1.14397823e+02    
4640000000   3.87029711e-02    -1.63872927e+02    9.94394216e-01    -1.16123046e+02    9.94394216e-01    -1.16123046e+02    3.53916664e-02    1.13074875e+02    
4680000000   3.90924343e-02    -1.64615797e+02    9.94364074e-01    -1.17132970e+02    9.94364074e-01    -1.17132970e+02    3.57385948e-02    1.11757486e+02    
4720000000   3.94787548e-02    -1.65371330e+02    9.94331278e-01    -1.18142969e+02    9.94331278e-01    -1.18142969e+02    3.60893809e-02    1.10445537e+02    
4760000000   3.98602153e-02    -1.66137925e+02    9.94295829e-01    -1.19153018e+02    9.94295829e-01    -1.19153018e+02    3.64435966e-02    1.09138775e+02    
4800000000   4.02352920e-02    -1.66913598e+02    9.94257778e-01    -1.20163091e+02    9.94257778e-01    -1.20163091e+02    3.68008096e-02    1.07836830e+02    
4840000000   4.06027118e-02    -1.67696059e+02    9.94217224e-01    -1.21173162e+02    9.94217224e-01    -1.21173162e+02    3.71605926e-02    1.06539228e+02    
4880000000   4.09615009e-02    -1.68482798e+02    9.94174311e-01    -1.22183208e+02    9.94174311e-01    -1.22183208e+02    3.75225326e-02    1.05245409e+02    
4920000000   4.13110216e-02    -1.69271180e+02    9.94129216e-01    -1.23193210e+02    9.94129216e-01    -1.23193210e+02    3.78862380e-02    1.03954747e+02    
4960000000   4.16509965e-02    -1.70058541e+02    9.94082145e-01    -1.24203149e+02    9.94082145e-01    -1.24203149e+02    3.82513453e-02    1.02666563e+02    
5000000000   4.19815198e-02    -1.70842286e+02    9.94033324e-01    -1.25213010e+02    9.94033324e-01    -1.25213010e+02    3.86175242e-02    1.01380148e+02    
5040000000   4.23030528e-02    -1.71619978e+02    9.93982990e-01    -1.26222781e+02    9.93982990e-01    -1.26222781e+02    3.89844819e-02    1.00094777e+02    
5080000000   4.26164057e-02    -1.72389431e+02    9.93931381e-01    -1.27232452e+02    9.93931381e-01    -1.27232452e+02    3.93519650e-02    9.88097208e+01    
5120000000   4.29227044e-02    -1.73148782e+02    9.93878729e-01    -1.28242017e+02    9.93878729e-01    -1.28242017e+02    3.97197618e-02    9.75242687e+01    
5160000000   4.32233453e-02    -1.73896563e+02    9.93825253e-01    -1.29251471e+02    9.93825253e-01    -1.29251471e+02    4.00877022e-02    9.62377354e+01    
5200000000   4.35199372e-02    -1.74631745e+02    9.93771150e-01    -1.30260813e+02    9.93771150e-01    -1.30260813e+02    4.04556568e-02    9.49494757e+01    
5240000000   4.38142350e-02    -1.75353774e+02    9.93716591e-01    -1.31270043e+02    9.93716591e-01    -1.31270043e+02    4.08235359e-02    9.36588947e+01    
5280000000   4.41080666e-02    -1.76062588e+02    9.93661719e-01    -1.32279163e+02    9.93661719e-01    -1.32279163e+02    4.11912862e-02    9.23654575e+01    
5320000000   4.44032569e-02    -1.76758603e+02    9.93606643e-01    -1.33288176e+02    9.93606643e-01    -1.33288176e+02    4.15588887e-02    9.10686964e+01    
5360000000   4.47015512e-02    -1.77442695e+02    9.93551440e-01    -1.34297085e+02    9.93551440e-01    -1.34297085e+02    4.19263542e-02    8.97682174e+01    
5400000000   4.50045440e-02    -1.78116145e+02    9.93496150e-01    -1.35305894e+02    9.93496150e-01    -1.35305894e+02    4.22937195e-02    8.84637048e+01    
5440000000   4.53136133e-02    -1.78780582e+02    9.93440786e-01    -1.36314606e+02    9.93440786e-01    -1.36314606e+02    4.26610433e-02    8.71549234e+01    
5480000000   4.83460978e-02    -1.77894571e+02    9.93277448e-01    -1.37288958e+02    9.93277448e-01    -1.37288958e+02    4.61848443e-02    8.55359586e+01    
5520000000   4.87689222e-02    -1.78619927e+02    9.93218532e-01    -1.38297478e+02    9.93218532e-01    -1.38297478e+02    4.65878345e-02    8.42511572e+01    
5560000000   4.91897162e-02    -1.79343061e+02    9.93159187e-01    -1.39305967e+02    9.93159187e-01    -1.39305967e+02    4.69852980e-02    8.29710808e+01    
5600000000   4.96088876e-02    1.79935896e+02    9.93099377e-01    -1.40314422e+02    9.93099377e-01    -1.40314422e+02    4.73772493e-02    8.16959993e+01    
5640000000   5.00268535e-02    1.79216732e+02    9.93039056e-01    -1.41322839e+02    9.93039056e-01    -1.41322839e+02    4.77637250e-02    8.04261424e+01    
5680000000   5.04440286e-02    1.78499151e+02    9.92978164e-01    -1.42331212e+02    9.92978164e-01    -1.42331212e+02    4.81447847e-02    7.91616983e+01    
5720000000   5.08608134e-02    1.77782775e+02    9.92916630e-01    -1.43339536e+02    9.92916630e-01    -1.43339536e+02    4.85205121e-02    7.79028129e+01    
5760000000   5.12775807e-02    1.77067148e+02    9.92854374e-01    -1.44347803e+02    9.92854374e-01    -1.44347803e+02    4.88910156e-02    7.66495879e+01    
5800000000   5.16946616e-02    1.76351741e+02    9.92791306e-01    -1.45356006e+02    9.92791306e-01    -1.45356006e+02    4.92564307e-02    7.54020803e+01    
5840000000   5.21123321e-02    1.75635960e+02    9.92727328e-01    -1.46364136e+02    9.92727328e-01    -1.46364136e+02    4.96169208e-02    7.41603000e+01    
5880000000   5.25307993e-02    1.74919160e+02    9.92662339e-01    -1.47372183e+02    9.92662339e-01    -1.47372183e+02    4.99726796e-02    7.29242086e+01    
