! Multiline TRL de-embedded results 
! Powered by MTRL v0.1 based on Matlab. Written by Simon.
! 29-Mar-2016 20:38:35
# hz S ma R 50
1000000000   8.77217412e-03    -8.45225704e+01    9.98401141e-01    -2.50862874e+01    9.98401141e-01    -2.50862874e+01    6.79837014e-03    -1.52929504e+02    
1040000000   8.94142098e-03    -8.82347817e+01    9.98149215e-01    -2.60993712e+01    9.98149215e-01    -2.60993712e+01    7.00699276e-03    -1.53587383e+02    
1080000000   9.09677408e-03    -9.20725804e+01    9.97876449e-01    -2.71125583e+01    9.97876449e-01    -2.71125583e+01    7.21404022e-03    -1.54330243e+02    
1120000000   9.23124501e-03    -9.62996009e+01    9.97564696e-01    -2.81265125e+01    9.97564696e-01    -2.81265125e+01    7.42130933e-03    -1.55142642e+02    
1160000000   9.33366192e-03    -1.01457417e+02    9.97175373e-01    -2.91424807e+01    9.97175373e-01    -2.91424807e+01    7.63014161e-03    -1.56012574e+02    
1200000000   9.38705614e-03    -1.08921357e+02    9.96607964e-01    -3.01632260e+01    9.96607964e-01    -3.01632260e+01    7.84068142e-03    -1.56932746e+02    
1240000000   9.41017538e-03    -1.23536134e+02    9.95494578e-01    -3.11960162e+01    9.95494578e-01    -3.11960162e+01    8.04836104e-03    -1.57906146e+02    
1280000000   1.12034163e-02    -1.75768109e+02    9.90989810e-01    -3.22364213e+01    9.90989810e-01    -3.22364213e+01    8.20642681e-03    -1.58913055e+02    
1320000000   1.89640888e-02    -2.22072222e+01    1.00046056e+00    -3.26447549e+01    1.00046056e+00    -3.26447549e+01    8.61048240e-03    -1.58661204e+02    
1360000000   1.32592268e-02    -6.60594440e+01    9.99315552e-01    -3.39935643e+01    9.99315552e-01    -3.39935643e+01    8.84529778e-03    -1.60296047e+02    
1400000000   1.24514790e-02    -7.81694466e+01    9.98488455e-01    -3.50558027e+01    9.98488455e-01    -3.50558027e+01    9.09626130e-03    -1.61347136e+02    
1440000000   1.22991809e-02    -8.41454114e+01    9.98022542e-01    -3.60814749e+01    9.98022542e-01    -3.60814749e+01    9.36508110e-03    -1.62308671e+02    
1480000000   1.23548893e-02    -8.78701733e+01    9.97701539e-01    -3.70956412e+01    9.97701539e-01    -3.70956412e+01    9.64853241e-03    -1.63223900e+02    
1520000000   1.25107668e-02    -9.05071350e+01    9.97453708e-01    -3.81045430e+01    9.97453708e-01    -3.81045430e+01    9.94565719e-03    -1.64098843e+02    
1560000000   1.27297932e-02    -9.25343258e+01    9.97249392e-01    -3.91104705e+01    9.97249392e-01    -3.91104705e+01    1.02560663e-02    -1.64931989e+02    
1600000000   1.29965450e-02    -9.41917401e+01    9.97074180e-01    -4.01144767e+01    9.97074180e-01    -4.01144767e+01    1.05795435e-02    -1.65719507e+02    
1640000000   1.33035850e-02    -9.56187063e+01    9.96920113e-01    -4.11171275e+01    9.96920113e-01    -4.11171275e+01    1.09159997e-02    -1.66456373e+02    
1680000000   1.36466313e-02    -9.69053859e+01    9.96782205e-01    -4.21187653e+01    9.96782205e-01    -4.21187653e+01    1.12656045e-02    -1.67136295e+02    
1720000000   1.40225254e-02    -9.81147654e+01    9.96656798e-01    -4.31196137e+01    9.96656798e-01    -4.31196137e+01    1.16291369e-02    -1.67751009e+02    
1760000000   1.44282788e-02    -9.92929313e+01    9.96540587e-01    -4.41198181e+01    9.96540587e-01    -4.41198181e+01    1.20087801e-02    -1.68289019e+02    
1800000000   1.48606031e-02    -1.00474217e+02    9.96429821e-01    -4.51194440e+01    9.96429821e-01    -4.51194440e+01    1.24099965e-02    -1.68734201e+02    
1840000000   1.53156909e-02    -1.01683972e+02    9.96319407e-01    -4.61184130e+01    9.96319407e-01    -4.61184130e+01    1.28462756e-02    -1.69067348e+02    
1880000000   1.57891392e-02    -1.02940187e+02    9.96202406e-01    -4.71162640e+01    9.96202406e-01    -4.71162640e+01    1.33515862e-02    -1.69290062e+02    
1920000000   1.62759662e-02    -1.04254495e+02    9.96076865e-01    -4.81114218e+01    9.96076865e-01    -4.81114218e+01    1.40056890e-02    -1.69578849e+02    
1960000000   1.67707864e-02    -1.05632744e+02    9.96002238e-01    -4.91008733e+01    9.96002238e-01    -4.91008733e+01    1.48694172e-02    -1.70874151e+02    
2000000000   1.72682781e-02    -1.07076763e+02    9.96127653e-01    -5.00913805e+01    9.96127653e-01    -5.00913805e+01    1.54261176e-02    -1.73987885e+02    
2040000000   1.77624551e-02    -1.08586518e+02    9.96255782e-01    -5.10937909e+01    9.96255782e-01    -5.10937909e+01    1.54135290e-02    -1.75994482e+02    
2080000000   1.82469125e-02    -1.10156179e+02    9.96267128e-01    -5.20978756e+01    9.96267128e-01    -5.20978756e+01    1.54629592e-02    -1.76564995e+02    
2120000000   1.87159247e-02    -1.11777005e+02    9.96237369e-01    -5.31000772e+01    9.96237369e-01    -5.31000772e+01    1.56560383e-02    -1.76804680e+02    
2160000000   1.91641582e-02    -1.13438772e+02    9.96199330e-01    -5.41009970e+01    9.96199330e-01    -5.41009970e+01    1.59212459e-02    -1.77040992e+02    
2200000000   1.95867657e-02    -1.15129769e+02    9.96160793e-01    -5.51012231e+01    9.96160793e-01    -5.51012231e+01    1.62166672e-02    -1.77325828e+02    
2240000000   1.99795663e-02    -1.16837147e+02    9.96122956e-01    -5.61010628e+01    9.96122956e-01    -5.61010628e+01    1.65220793e-02    -1.77658764e+02    
2280000000   2.03391900e-02    -1.18547334e+02    9.96085440e-01    -5.71006636e+01    9.96085440e-01    -5.71006636e+01    1.68270685e-02    -1.78033158e+02    
2320000000   2.06631869e-02    -1.20246427e+02    9.96047580e-01    -5.81000907e+01    9.96047580e-01    -5.81000907e+01    1.71257048e-02    -1.78444184e+02    
2360000000   2.09501004e-02    -1.21920543e+02    9.96008780e-01    -5.90993657e+01    9.96008780e-01    -5.90993657e+01    1.74142962e-02    -1.78889546e+02    
2400000000   2.11995049e-02    -1.23556159e+02    9.95968616e-01    -6.00984864e+01    9.95968616e-01    -6.00984864e+01    1.76904016e-02    -1.79368961e+02    
2440000000   2.14120045e-02    -1.25140405e+02    9.95926850e-01    -6.10974382e+01    9.95926850e-01    -6.10974382e+01    1.79523711e-02    -1.79883601e+02    
2480000000   2.15891955e-02    -1.26661357e+02    9.95883420e-01    -6.20962007e+01    9.95883420e-01    -6.20962007e+01    1.81991248e-02    1.79564332e+02    
2520000000   2.17335940e-02    -1.28108290e+02    9.95838423e-01    -6.30947521e+01    9.95838423e-01    -6.30947521e+01    1.84300426e-02    1.78971908e+02    
2560000000   2.18485322e-02    -1.29471905e+02    9.95792080e-01    -6.40930722e+01    9.95792080e-01    -6.40930722e+01    1.86449091e-02    1.78335690e+02    
2600000000   2.19380292e-02    -1.30744537e+02    9.95744707e-01    -6.50911446e+01    9.95744707e-01    -6.50911446e+01    1.88438880e-02    1.77651902e+02    
2640000000   2.20066435e-02    -1.31920307e+02    9.95696681e-01    -6.60889574e+01    9.95696681e-01    -6.60889574e+01    1.90275098e-02    1.76916570e+02    
2680000000   2.20593147e-02    -1.32995238e+02    9.95648407e-01    -6.70865042e+01    9.95648407e-01    -6.70865042e+01    1.91966666e-02    1.76125650e+02    
2720000000   2.21012025e-02    -1.33967316e+02    9.95600294e-01    -6.80837837e+01    9.95600294e-01    -6.80837837e+01    1.93526095e-02    1.75275160e+02    
2760000000   2.31907605e-02    -1.27712915e+02    9.95821657e-01    -6.90204224e+01    9.95821657e-01    -6.90204224e+01    1.89822965e-02    1.67420286e+02    
2800000000   2.34958359e-02    -1.28645339e+02    9.95753280e-01    -7.00189455e+01    9.95753280e-01    -7.00189455e+01    1.94231784e-02    1.66568793e+02    
2840000000   2.38012294e-02    -1.29548453e+02    9.95682476e-01    -7.10172125e+01    9.95682476e-01    -7.10172125e+01    1.98683184e-02    1.65709592e+02    
2880000000   2.41087099e-02    -1.30425012e+02    9.95610230e-01    -7.20152129e+01    9.95610230e-01    -7.20152129e+01    2.03163068e-02    1.64841671e+02    
2920000000   2.44198125e-02    -1.31278378e+02    9.95537514e-01    -7.30129447e+01    9.95537514e-01    -7.30129447e+01    2.07657800e-02    1.63964111e+02    
2960000000   2.47357882e-02    -1.32112353e+02    9.95465274e-01    -7.40104143e+01    9.95465274e-01    -7.40104143e+01    2.12154177e-02    1.63076073e+02    
3000000000   2.50575650e-02    -1.32931002e+02    9.95394409e-01    -7.50076354e+01    9.95394409e-01    -7.50076354e+01    2.16639426e-02    1.62176775e+02    
3040000000   2.53857218e-02    -1.33738476e+02    9.95325757e-01    -7.60046290e+01    9.95325757e-01    -7.60046290e+01    2.21101239e-02    1.61265487e+02    
3080000000   2.57204767e-02    -1.34538842e+02    9.95260086e-01    -7.70014223e+01    9.95260086e-01    -7.70014223e+01    2.25527825e-02    1.60341517e+02    
3120000000   2.60616888e-02    -1.35335919e+02    9.95198074e-01    -7.79980482e+01    9.95198074e-01    -7.79980482e+01    2.29907995e-02    1.59404206e+02    
3160000000   2.64088744e-02    -1.36133139e+02    9.95140301e-01    -7.89945442e+01    9.95140301e-01    -7.89945442e+01    2.34231247e-02    1.58452922e+02    
3200000000   2.67612363e-02    -1.36933427e+02    9.95087238e-01    -7.99909518e+01    9.95087238e-01    -7.99909518e+01    2.38487879e-02    1.57487060e+02    
3240000000   2.71177049e-02    -1.37739104e+02    9.95039243e-01    -8.09873151e+01    9.95039243e-01    -8.09873151e+01    2.42669088e-02    1.56506039e+02    
3280000000   2.74769903e-02    -1.38551826e+02    9.94996550e-01    -8.19836799e+01    9.94996550e-01    -8.19836799e+01    2.46767094e-02    1.55509301e+02    
3320000000   2.78376421e-02    -1.39372552e+02    9.94959273e-01    -8.29800927e+01    9.94959273e-01    -8.29800927e+01    2.50775241e-02    1.54496318e+02    
3360000000   2.81981153e-02    -1.40201538e+02    9.94927401e-01    -8.39765994e+01    9.94927401e-01    -8.39765994e+01    2.54688108e-02    1.53466596e+02    
3400000000   2.85568393e-02    -1.41038365e+02    9.94900806e-01    -8.49732445e+01    9.94900806e-01    -8.49732445e+01    2.58501592e-02    1.52419678e+02    
3440000000   2.89122874e-02    -1.41881987e+02    9.94879249e-01    -8.59700699e+01    9.94879249e-01    -8.59700699e+01    2.62212992e-02    1.51355158e+02    
3480000000   2.92630440e-02    -1.42730807e+02    9.94862384e-01    -8.69671137e+01    9.94862384e-01    -8.69671137e+01    2.65821063e-02    1.50272690e+02    
3520000000   2.96078663e-02    -1.43582764e+02    9.94849778e-01    -8.79644100e+01    9.94849778e-01    -8.79644100e+01    2.69326046e-02    1.49171996e+02    
3560000000   2.99457397e-02    -1.44435438e+02    9.94840918e-01    -8.89619879e+01    9.94840918e-01    -8.89619879e+01    2.72729677e-02    1.48052884e+02    
3600000000   3.02759229e-02    -1.45286167e+02    9.94835230e-01    -8.99598709e+01    9.94835230e-01    -8.99598709e+01    2.76035166e-02    1.46915260e+02    
3640000000   3.05979822e-02    -1.46132160e+02    9.94832094e-01    -9.09580767e+01    9.94832094e-01    -9.09580767e+01    2.79247144e-02    1.45759140e+02    
3680000000   3.09118134e-02    -1.46970621e+02    9.94830860e-01    -9.19566171e+01    9.94830860e-01    -9.19566171e+01    2.82371579e-02    1.44584665e+02    
3720000000   3.12176506e-02    -1.47798864e+02    9.94830868e-01    -9.29554979e+01    9.94830868e-01    -9.29554979e+01    2.85415666e-02    1.43392109e+02    
3760000000   3.15160615e-02    -1.48614426e+02    9.94831462e-01    -9.39547190e+01    9.94831462e-01    -9.39547190e+01    2.88387687e-02    1.42181895e+02    
3800000000   3.18079294e-02    -1.49415167e+02    9.94832004e-01    -9.49542751e+01    9.94832004e-01    -9.49542751e+01    2.91296842e-02    1.40954594e+02    
3840000000   3.20944224e-02    -1.50199359e+02    9.94831893e-01    -9.59541557e+01    9.94831893e-01    -9.59541557e+01    2.94153066e-02    1.39710936e+02    
3880000000   3.23769521e-02    -1.50965762e+02    9.94830572e-01    -9.69543460e+01    9.94830572e-01    -9.69543460e+01    2.96966827e-02    1.38451803e+02    
3920000000   3.26571213e-02    -1.51713674e+02    9.94827542e-01    -9.79548275e+01    9.94827542e-01    -9.79548275e+01    2.99748905e-02    1.37178227e+02    
3960000000   3.29366648e-02    -1.52442970e+02    9.94822369e-01    -9.89555785e+01    9.94822369e-01    -9.89555785e+01    3.02510185e-02    1.35891378e+02    
4000000000   3.32173844e-02    -1.53154114e+02    9.94814692e-01    -9.99565753e+01    9.94814692e-01    -9.99565753e+01    3.05261429e-02    1.34592554e+02    
4040000000   3.35010802e-02    -1.53848152e+02    9.94804223e-01    -1.00957792e+02    9.94804223e-01    -1.00957792e+02    3.08013076e-02    1.33283157e+02    
4080000000   3.37894823e-02    -1.54526675e+02    9.94790755e-01    -1.01959204e+02    9.94790755e-01    -1.01959204e+02    3.10775047e-02    1.31964673e+02    
4120000000   3.40841841e-02    -1.55191767e+02    9.94774160e-01    -1.02960783e+02    9.94774160e-01    -1.02960783e+02    3.13556568e-02    1.30638643e+02    
4160000000   3.43865802e-02    -1.55845933e+02    9.94754385e-01    -1.03962505e+02    9.94754385e-01    -1.03962505e+02    3.16366023e-02    1.29306640e+02    
4200000000   3.46978119e-02    -1.56492005e+02    9.94731454e-01    -1.04964347e+02    9.94731454e-01    -1.04964347e+02    3.19210833e-02    1.27970232e+02    
4240000000   3.50187221e-02    -1.57133035e+02    9.94705457e-01    -1.05966285e+02    9.94705457e-01    -1.05966285e+02    3.22097366e-02    1.26630956e+02    
4280000000   3.53498206e-02    -1.57772183e+02    9.94676551e-01    -1.06968301e+02    9.94676551e-01    -1.06968301e+02    3.25030874e-02    1.25290286e+02    
4320000000   3.56912631e-02    -1.58412600e+02    9.94644947e-01    -1.07970378e+02    9.94644947e-01    -1.07970378e+02    3.28015469e-02    1.23949608e+02    
4360000000   3.60428434e-02    -1.59057309e+02    9.94610902e-01    -1.08972503e+02    9.94610902e-01    -1.08972503e+02    3.31054119e-02    1.22610191e+02    
4400000000   3.64039983e-02    -1.59709093e+02    9.94574713e-01    -1.09974668e+02    9.94574713e-01    -1.09974668e+02    3.34148686e-02    1.21273167e+02    
4440000000   3.67738279e-02    -1.60370400e+02    9.94536702e-01    -1.10976867e+02    9.94536702e-01    -1.10976867e+02    3.37299969e-02    1.19939516e+02    
4480000000   3.71511276e-02    -1.61043258e+02    9.94497212e-01    -1.11979098e+02    9.94497212e-01    -1.11979098e+02    3.40507788e-02    1.18610048e+02    
4520000000   3.75344315e-02    -1.61729208e+02    9.94456587e-01    -1.12981365e+02    9.94456587e-01    -1.12981365e+02    3.43771071e-02    1.17285398e+02    
4560000000   3.79220663e-02    -1.62429259e+02    9.94415168e-01    -1.13983674e+02    9.94415168e-01    -1.13983674e+02    3.47087956e-02    1.15966024e+02    
4600000000   3.83122124e-02    -1.63143866e+02    9.94373280e-01    -1.14986036e+02    9.94373280e-01    -1.14986036e+02    3.50455906e-02    1.14652203e+02    
4640000000   3.87029711e-02    -1.63872927e+02    9.94331222e-01    -1.15988463e+02    9.94331222e-01    -1.15988463e+02    3.53871825e-02    1.13344041e+02    
4680000000   3.90924343e-02    -1.64615797e+02    9.94289256e-01    -1.16990973e+02    9.94289256e-01    -1.16990973e+02    3.57332170e-02    1.12041478e+02    
4720000000   3.94787548e-02    -1.65371330e+02    9.94247603e-01    -1.17993586e+02    9.94247603e-01    -1.17993586e+02    3.60833071e-02    1.10744304e+02    
4760000000   3.98602153e-02    -1.66137925e+02    9.94206432e-01    -1.18996321e+02    9.94206432e-01    -1.18996321e+02    3.64370436e-02    1.09452170e+02    
4800000000   4.02352920e-02    -1.66913598e+02    9.94165858e-01    -1.19999202e+02    9.94165858e-01    -1.19999202e+02    3.67940054e-02    1.08164608e+02    
4840000000   4.06027118e-02    -1.67696059e+02    9.94125936e-01    -1.21002251e+02    9.94125936e-01    -1.21002251e+02    3.71537689e-02    1.06881050e+02    
4880000000   4.09615009e-02    -1.68482798e+02    9.94086665e-01    -1.22005491e+02    9.94086665e-01    -1.22005491e+02    3.75159170e-02    1.05600843e+02    
4920000000   4.13110216e-02    -1.69271180e+02    9.94047982e-01    -1.23008946e+02    9.94047982e-01    -1.23008946e+02    3.78800466e-02    1.04323275e+02    
4960000000   4.16509965e-02    -1.70058541e+02    9.94009770e-01    -1.24012635e+02    9.94009770e-01    -1.24012635e+02    3.82457756e-02    1.03047591e+02    
5000000000   4.19815198e-02    -1.70842286e+02    9.93971860e-01    -1.25016579e+02    9.93971860e-01    -1.25016579e+02    3.86127487e-02    1.01773011e+02    
5040000000   4.23030528e-02    -1.71619978e+02    9.93934038e-01    -1.26020794e+02    9.93934038e-01    -1.26020794e+02    3.89806421e-02    1.00498751e+02    
5080000000   4.26164057e-02    -1.72389431e+02    9.93896055e-01    -1.27025293e+02    9.93896055e-01    -1.27025293e+02    3.93491678e-02    9.92240378e+01    
5120000000   4.29227044e-02    -1.73148782e+02    9.93857632e-01    -1.28030089e+02    9.93857632e-01    -1.28030089e+02    3.97180756e-02    9.79481241e+01    
5160000000   4.32233453e-02    -1.73896563e+02    9.93818473e-01    -1.29035188e+02    9.93818473e-01    -1.29035188e+02    4.00871552e-02    9.66703019e+01    
5200000000   4.35199372e-02    -1.74631745e+02    9.93778275e-01    -1.30040594e+02    9.93778275e-01    -1.30040594e+02    4.04562369e-02    9.53899145e+01    
5240000000   4.38142350e-02    -1.75353774e+02    9.93736737e-01    -1.31046307e+02    9.93736737e-01    -1.31046307e+02    4.08251911e-02    9.41063666e+01    
5280000000   4.41080666e-02    -1.76062588e+02    9.93693572e-01    -1.32052326e+02    9.93693572e-01    -1.32052326e+02    4.11939271e-02    9.28191324e+01    
5320000000   4.44032569e-02    -1.76758603e+02    9.93648516e-01    -1.33058643e+02    9.93648516e-01    -1.33058643e+02    4.15623915e-02    9.15277622e+01    
5360000000   4.47015512e-02    -1.77442695e+02    9.93601336e-01    -1.34065250e+02    9.93601336e-01    -1.34065250e+02    4.19305653e-02    9.02318865e+01    
5400000000   4.50045440e-02    -1.78116145e+02    9.93551836e-01    -1.35072136e+02    9.93551836e-01    -1.35072136e+02    4.22984608e-02    8.89312195e+01    
5440000000   4.53136133e-02    -1.78780582e+02    9.93499866e-01    -1.36079288e+02    9.93499866e-01    -1.36079288e+02    4.26661176e-02    8.76255596e+01    
5480000000   4.83460978e-02    -1.77894571e+02    9.93301985e-01    -1.37131052e+02    9.93301985e-01    -1.37131052e+02    4.61871261e-02    8.58517718e+01    
5520000000   4.87689222e-02    -1.78619927e+02    9.93235926e-01    -1.38138746e+02    9.93235926e-01    -1.38138746e+02    4.65894662e-02    8.45686209e+01    
5560000000   4.91897162e-02    -1.79343061e+02    9.93168428e-01    -1.39146616e+02    9.93168428e-01    -1.39146616e+02    4.69861724e-02    8.32897823e+01    
5600000000   4.96088876e-02    1.79935896e+02    9.93099471e-01    -1.40154663e+02    9.93099471e-01    -1.40154663e+02    4.73772582e-02    8.20155175e+01    
5640000000   5.00268535e-02    1.79216732e+02    9.93029036e-01    -1.41162886e+02    9.93029036e-01    -1.41162886e+02    4.77627611e-02    8.07460478e+01    
5680000000   5.04440286e-02    1.78499151e+02    9.92957100e-01    -1.42171285e+02    9.92957100e-01    -1.42171285e+02    4.81427422e-02    7.94815531e+01    
5720000000   5.08608134e-02    1.77782775e+02    9.92883643e-01    -1.43179857e+02    9.92883643e-01    -1.43179857e+02    4.85172882e-02    7.82221709e+01    
5760000000   5.12775807e-02    1.77067148e+02    9.92808644e-01    -1.44188599e+02    9.92808644e-01    -1.44188599e+02    4.88865120e-02    7.69679949e+01    
5800000000   5.16946616e-02    1.76351741e+02    9.92732086e-01    -1.45197509e+02    9.92732086e-01    -1.45197509e+02    4.92505546e-02    7.57190739e+01    
5840000000   5.21123321e-02    1.75635960e+02    9.92653957e-01    -1.46206581e+02    9.92653957e-01    -1.46206581e+02    4.96095868e-02    7.44754104e+01    
5880000000   5.25307993e-02    1.74919160e+02    9.92574250e-01    -1.47215808e+02    9.92574250e-01    -1.47215808e+02    4.99638108e-02    7.32369585e+01    
