! Multiline TRL de-embedded results 
! Powered by MTRL v0.1 based on Matlab. Written by Simon.
! 29-Mar-2016 20:38:10
# hz S ma R 50
1000000000   1.35045514e-02    -8.42244442e+01    9.98298900e-01    -2.53559557e+01    9.98298900e-01    -2.53559557e+01    1.14552409e-02    -1.51310148e+02    
1040000000   1.38592482e-02    -8.53707117e+01    9.98035584e-01    -2.63799579e+01    9.98035584e-01    -2.63799579e+01    1.12777167e-02    -1.52574495e+02    
1080000000   1.42139381e-02    -8.64278220e+01    9.97751086e-01    -2.74040912e+01    9.97751086e-01    -2.74040912e+01    1.10659767e-02    -1.53953317e+02    
1120000000   1.45719848e-02    -8.73974277e+01    9.97426809e-01    -2.84290326e+01    9.97426809e-01    -2.84290326e+01    1.07789217e-02    -1.55476611e+02    
1160000000   1.49368284e-02    -8.82843262e+01    9.97023215e-01    -2.94560492e+01    9.97023215e-01    -2.94560492e+01    1.03281478e-02    -1.57198552e+02    
1200000000   1.53118396e-02    -8.90958574e+01    9.96437425e-01    -3.04879345e+01    9.96437425e-01    -3.04879345e+01    9.48655913e-03    -1.59213633e+02    
1240000000   1.57001930e-02    -8.98412172e+01    9.95294161e-01    -3.15319370e+01    9.95294161e-01    -3.15319370e+01    7.45924977e-03    -1.61364523e+02    
1280000000   1.61048210e-02    -9.05297082e+01    9.90732743e-01    -3.25819554e+01    9.90732743e-01    -3.25819554e+01    2.44259137e-03    -4.81139751e+01    
1320000000   1.65302831e-02    -9.11846441e+01    1.00025681e+00    -3.29811554e+01    1.00025681e+00    -3.29811554e+01    2.95774047e-02    -1.32914502e+02    
1360000000   1.69738324e-02    -9.18006103e+01    9.99205612e-01    -3.43554902e+01    9.99205612e-01    -3.43554902e+01    1.97284688e-02    -1.53486971e+02    
1400000000   1.74409984e-02    -9.23992535e+01    9.98356798e-01    -3.54310766e+01    9.98356798e-01    -3.54310766e+01    1.76778183e-02    -1.58330730e+02    
1440000000   1.79322357e-02    -9.29922070e+01    9.97876548e-01    -3.64685616e+01    9.97876548e-01    -3.64685616e+01    1.70049043e-02    -1.61090082e+02    
1480000000   1.84482234e-02    -9.35909184e+01    9.97545247e-01    -3.74941213e+01    9.97545247e-01    -3.74941213e+01    1.68211954e-02    -1.63185980e+02    
1520000000   1.89892371e-02    -9.42061983e+01    9.97289416e-01    -3.85142539e+01    9.97289416e-01    -3.85142539e+01    1.68793819e-02    -1.64977636e+02    
1560000000   1.95551368e-02    -9.48480337e+01    9.97078610e-01    -3.95313376e+01    9.97078610e-01    -3.95313376e+01    1.70832676e-02    -1.66594753e+02    
1600000000   2.01454134e-02    -9.55256164e+01    9.96898033e-01    -4.05464628e+01    9.96898033e-01    -4.05464628e+01    1.73870958e-02    -1.68094725e+02    
1640000000   2.07592661e-02    -9.62475888e+01    9.96739532e-01    -4.15602134e+01    9.96739532e-01    -4.15602134e+01    1.77657344e-02    -1.69506912e+02    
1680000000   2.13957034e-02    -9.70226186e+01    9.96598037e-01    -4.25729398e+01    9.96598037e-01    -4.25729398e+01    1.82036746e-02    -1.70848350e+02    
1720000000   2.20536494e-02    -9.78605621e+01    9.96469897e-01    -4.35848686e+01    9.96469897e-01    -4.35848686e+01    1.86903182e-02    -1.72130203e+02    
1760000000   2.27319666e-02    -9.87748155e+01    9.96351930e-01    -4.45961443e+01    9.96351930e-01    -4.45961443e+01    1.92177273e-02    -1.73360676e+02    
1800000000   2.34290207e-02    -9.97872738e+01    9.96240712e-01    -4.56068295e+01    9.96240712e-01    -4.56068295e+01    1.97794539e-02    -1.74546364e+02    
1840000000   2.41401643e-02    -1.00939238e+02    9.96131895e-01    -4.66168459e+01    9.96131895e-01    -4.66168459e+01    2.03698846e-02    -1.75692808e+02    
1880000000   2.48457453e-02    -1.02314131e+02    9.96020210e-01    -4.76257632e+01    9.96020210e-01    -4.76257632e+01    2.09838726e-02    -1.76804421e+02    
1920000000   2.54567697e-02    -1.04053335e+02    9.95906853e-01    -4.86321993e+01    9.95906853e-01    -4.86321993e+01    2.16167993e-02    -1.77883482e+02    
1960000000   2.56654840e-02    -1.06015341e+02    9.95849670e-01    -4.96338882e+01    9.95849670e-01    -4.96338882e+01    2.22665656e-02    -1.78930048e+02    
2000000000   2.54625774e-02    -1.06569599e+02    9.95967027e-01    -5.06377025e+01    9.95967027e-01    -5.06377025e+01    2.29344150e-02    -1.79960432e+02    
2040000000   2.59036842e-02    -1.06075892e+02    9.96065384e-01    -5.16519855e+01    9.96065384e-01    -5.16519855e+01    2.36087676e-02    1.79004942e+02    
2080000000   2.67128256e-02    -1.06348863e+02    9.96058169e-01    -5.26670240e+01    9.96058169e-01    -5.26670240e+01    2.42813437e-02    1.77979829e+02    
2120000000   2.75021307e-02    -1.07133291e+02    9.96018337e-01    -5.36801462e+01    9.96018337e-01    -5.36801462e+01    2.49511969e-02    1.76966144e+02    
2160000000   2.82221594e-02    -1.08114544e+02    9.95973546e-01    -5.46920837e+01    9.95973546e-01    -5.46920837e+01    2.56159040e-02    1.75959560e+02    
2200000000   2.88835091e-02    -1.09170182e+02    9.95929398e-01    -5.57034035e+01    9.95929398e-01    -5.57034035e+01    2.62723181e-02    1.74956211e+02    
2240000000   2.94976560e-02    -1.10251735e+02    9.95886207e-01    -5.67143827e+01    9.95886207e-01    -5.67143827e+01    2.69173033e-02    1.73952984e+02    
2280000000   3.00720765e-02    -1.11336383e+02    9.95843198e-01    -5.77251462e+01    9.95843198e-01    -5.77251462e+01    2.75479640e-02    1.72947265e+02    
2320000000   3.06115738e-02    -1.12411022e+02    9.95799513e-01    -5.87357426e+01    9.95799513e-01    -5.87357426e+01    2.81617344e-02    1.71936771e+02    
2360000000   3.11195612e-02    -1.13466731e+02    9.95754455e-01    -5.97461814e+01    9.95754455e-01    -5.97461814e+01    2.87564299e-02    1.70919444e+02    
2400000000   3.15988447e-02    -1.14496716e+02    9.95707544e-01    -6.07564512e+01    9.95707544e-01    -6.07564512e+01    2.93302835e-02    1.69893388e+02    
2440000000   3.20520644e-02    -1.15495499e+02    9.95658513e-01    -6.17665305e+01    9.95658513e-01    -6.17665305e+01    2.98819721e-02    1.68856816e+02    
2480000000   3.24819318e-02    -1.16458613e+02    9.95607285e-01    -6.27763933e+01    9.95607285e-01    -6.27763933e+01    3.04106333e-02    1.67808011e+02    
2520000000   3.28913453e-02    -1.17382501e+02    9.95553943e-01    -6.37860140e+01    9.95553943e-01    -6.37860140e+01    3.09158729e-02    1.66745299e+02    
2560000000   3.32834301e-02    -1.18264499e+02    9.95498696e-01    -6.47953696e+01    9.95498696e-01    -6.47953696e+01    3.13977631e-02    1.65667034e+02    
2600000000   3.36615264e-02    -1.19102854e+02    9.95441846e-01    -6.58044415e+01    9.95441846e-01    -6.58044415e+01    3.18568313e-02    1.64571587e+02    
2640000000   3.40291435e-02    -1.19896748e+02    9.95383746e-01    -6.68132165e+01    9.95383746e-01    -6.68132165e+01    3.22940417e-02    1.63457358e+02    
2680000000   3.43898895e-02    -1.20646303e+02    9.95324776e-01    -6.78216871e+01    9.95324776e-01    -6.78216871e+01    3.27107675e-02    1.62322787e+02    
2720000000   3.47473846e-02    -1.21352573e+02    9.95265310e-01    -6.88298511e+01    9.95265310e-01    -6.88298511e+01    3.31087589e-02    1.61166382e+02    
2760000000   3.39065958e-02    -1.19990058e+02    9.95567598e-01    -6.97822985e+01    9.95567598e-01    -6.97822985e+01    3.20348466e-02    1.57982485e+02    
2800000000   3.44818475e-02    -1.20445825e+02    9.95482336e-01    -7.07926500e+01    9.95482336e-01    -7.07926500e+01    3.25583947e-02    1.56683875e+02    
2840000000   3.50740855e-02    -1.20924522e+02    9.95393286e-01    -7.18026592e+01    9.95393286e-01    -7.18026592e+01    3.30810582e-02    1.55397797e+02    
2880000000   3.56804391e-02    -1.21428848e+02    9.95301647e-01    -7.28123071e+01    9.95301647e-01    -7.28123071e+01    3.36030839e-02    1.54123144e+02    
2920000000   3.62977767e-02    -1.21960341e+02    9.95208616e-01    -7.38215855e+01    9.95208616e-01    -7.38215855e+01    3.41246931e-02    1.52858612e+02    
2960000000   3.69228100e-02    -1.22519452e+02    9.95115363e-01    -7.48304964e+01    9.95115363e-01    -7.48304964e+01    3.46460743e-02    1.51602738e+02    
3000000000   3.75521974e-02    -1.23105650e+02    9.95023016e-01    -7.58390520e+01    9.95023016e-01    -7.58390520e+01    3.51673769e-02    1.50353915e+02    
3040000000   3.81826438e-02    -1.23717534e+02    9.94932634e-01    -7.68472735e+01    9.94932634e-01    -7.68472735e+01    3.56887064e-02    1.49110427e+02    
3080000000   3.88109952e-02    -1.24352961e+02    9.94845191e-01    -7.78551906e+01    9.94845191e-01    -7.78551906e+01    3.62101214e-02    1.47870474e+02    
3120000000   3.94343246e-02    -1.25009186e+02    9.94761560e-01    -7.88628404e+01    9.94761560e-01    -7.88628404e+01    3.67316327e-02    1.46632201e+02    
3160000000   4.00500073e-02    -1.25682993e+02    9.94682488e-01    -7.98702666e+01    9.94682488e-01    -7.98702666e+01    3.72532035e-02    1.45393727e+02    
3200000000   4.06557849e-02    -1.26370831e+02    9.94608594e-01    -8.08775180e+01    9.94608594e-01    -8.08775180e+01    3.77747522e-02    1.44153171e+02    
3240000000   4.12498154e-02    -1.27068949e+02    9.94540351e-01    -8.18846472e+01    9.94540351e-01    -8.18846472e+01    3.82961557e-02    1.42908685e+02    
3280000000   4.18307094e-02    -1.27773517e+02    9.94478080e-01    -8.28917097e+01    9.94478080e-01    -8.28917097e+01    3.88172558e-02    1.41658480e+02    
3320000000   4.23975517e-02    -1.28480741e+02    9.94421949e-01    -8.38987617e+01    9.94421949e-01    -8.38987617e+01    3.93378656e-02    1.40400849e+02    
3360000000   4.29499080e-02    -1.29186970e+02    9.94371970e-01    -8.49058591e+01    9.94371970e-01    -8.49058591e+01    3.98577776e-02    1.39134199e+02    
3400000000   4.34878169e-02    -1.29888794e+02    9.94328009e-01    -8.59130561e+01    9.94328009e-01    -8.59130561e+01    4.03767732e-02    1.37857067e+02    
3440000000   4.40117679e-02    -1.30583120e+02    9.94289791e-01    -8.69204039e+01    9.94289791e-01    -8.69204039e+01    4.08946319e-02    1.36568146e+02    
3480000000   4.45226664e-02    -1.31267247e+02    9.94256911e-01    -8.79279491e+01    9.94256911e-01    -8.79279491e+01    4.14111411e-02    1.35266304e+02    
3520000000   4.50217870e-02    -1.31938920e+02    9.94228857e-01    -8.89357332e+01    9.94228857e-01    -8.89357332e+01    4.19261054e-02    1.33950593e+02    
3560000000   4.55107166e-02    -1.32596375e+02    9.94205020e-01    -8.99437914e+01    9.94205020e-01    -8.99437914e+01    4.24393555e-02    1.32620267e+02    
3600000000   4.59912890e-02    -1.33238358e+02    9.94184721e-01    -9.09521520e+01    9.94184721e-01    -9.09521520e+01    4.29507558e-02    1.31274788e+02    
3640000000   4.64655147e-02    -1.33864144e+02    9.94167230e-01    -9.19608362e+01    9.94167230e-01    -9.19608362e+01    4.34602105e-02    1.29913826e+02    
3680000000   4.69355059e-02    -1.34473527e+02    9.94151790e-01    -9.29698578e+01    9.94151790e-01    -9.29698578e+01    4.39676681e-02    1.28537268e+02    
3720000000   4.74034016e-02    -1.35066803e+02    9.94137639e-01    -9.39792234e+01    9.94137639e-01    -9.39792234e+01    4.44731236e-02    1.27145202e+02    
3760000000   4.78712935e-02    -1.35644730e+02    9.94124028e-01    -9.49889326e+01    9.94124028e-01    -9.49889326e+01    4.49766192e-02    1.25737919e+02    
3800000000   4.83411570e-02    -1.36208486e+02    9.94110245e-01    -9.59989786e+01    9.94110245e-01    -9.59989786e+01    4.54782419e-02    1.24315895e+02    
3840000000   4.88147874e-02    -1.36759603e+02    9.94095632e-01    -9.70093490e+01    9.94095632e-01    -9.70093490e+01    4.59781202e-02    1.22879781e+02    
3880000000   4.92937457e-02    -1.37299901e+02    9.94079595e-01    -9.80200265e+01    9.94079595e-01    -9.80200265e+01    4.64764183e-02    1.21430376e+02    
3920000000   4.97793138e-02    -1.37831409e+02    9.94061621e-01    -9.90309896e+01    9.94061621e-01    -9.90309896e+01    4.69733295e-02    1.19968617e+02    
3960000000   5.02724617e-02    -1.38356286e+02    9.94041282e-01    -1.00042214e+02    9.94041282e-01    -1.00042214e+02    4.74690681e-02    1.18495547e+02    
4000000000   5.07738262e-02    -1.38876739e+02    9.94018246e-01    -1.01053674e+02    9.94018246e-01    -1.01053674e+02    4.79638609e-02    1.17012295e+02    
4040000000   5.12837028e-02    -1.39394945e+02    9.93992274e-01    -1.02065342e+02    9.93992274e-01    -1.02065342e+02    4.84579394e-02    1.15520052e+02    
4080000000   5.18020493e-02    -1.39912980e+02    9.93963225e-01    -1.03077191e+02    9.93963225e-01    -1.03077191e+02    4.89515312e-02    1.14020043e+02    
4120000000   5.23285015e-02    -1.40432748e+02    9.93931049e-01    -1.04089195e+02    9.93931049e-01    -1.04089195e+02    4.94448531e-02    1.12513503e+02    
4160000000   5.28623988e-02    -1.40955931e+02    9.93895782e-01    -1.05101331e+02    9.93895782e-01    -1.05101331e+02    4.99381056e-02    1.11001655e+02    
4200000000   5.34028190e-02    -1.41483944e+02    9.93857541e-01    -1.06113576e+02    9.93857541e-01    -1.06113576e+02    5.04314680e-02    1.09485688e+02    
4240000000   5.39486211e-02    -1.42017899e+02    9.93816514e-01    -1.07125912e+02    9.93816514e-01    -1.07125912e+02    5.09250959e-02    1.07966735e+02    
4280000000   5.44984926e-02    -1.42558589e+02    9.93772945e-01    -1.08138325e+02    9.93772945e-01    -1.08138325e+02    5.14191200e-02    1.06445859e+02    
4320000000   5.50510018e-02    -1.43106481e+02    9.93727127e-01    -1.09150805e+02    9.93727127e-01    -1.09150805e+02    5.19136472e-02    1.04924035e+02    
4360000000   5.56046509e-02    -1.43661714e+02    9.93679389e-01    -1.10163346e+02    9.93679389e-01    -1.10163346e+02    5.24087619e-02    1.03402140e+02    
4400000000   5.61579296e-02    -1.44224118e+02    9.93630078e-01    -1.11175947e+02    9.93630078e-01    -1.11175947e+02    5.29045301e-02    1.01880945e+02    
4440000000   5.67093679e-02    -1.44793233e+02    9.93579549e-01    -1.12188613e+02    9.93579549e-01    -1.12188613e+02    5.34010042e-02    1.00361106e+02    
4480000000   5.72575846e-02    -1.45368341e+02    9.93528150e-01    -1.13201350e+02    9.93528150e-01    -1.13201350e+02    5.38982276e-02    9.88431654e+01    
4520000000   5.78013330e-02    -1.45948498e+02    9.93476210e-01    -1.14214171e+02    9.93476210e-01    -1.14214171e+02    5.43962415e-02    9.73275459e+01    
4560000000   5.83395406e-02    -1.46532576e+02    9.93424028e-01    -1.15227093e+02    9.93424028e-01    -1.15227093e+02    5.48950906e-02    9.58145572e+01    
4600000000   5.88713428e-02    -1.47119307e+02    9.93371858e-01    -1.16240135e+02    9.93371858e-01    -1.16240135e+02    5.53948290e-02    9.43043977e+01    
4640000000   5.93961102e-02    -1.47707326e+02    9.93319905e-01    -1.17253320e+02    9.93319905e-01    -1.17253320e+02    5.58955260e-02    9.27971609e+01    
4680000000   5.99134687e-02    -1.48295215e+02    9.93268314e-01    -1.18266671e+02    9.93268314e-01    -1.18266671e+02    5.63972712e-02    9.12928431e+01    
4720000000   6.04233115e-02    -1.48881549e+02    9.93217167e-01    -1.19280215e+02    9.93217167e-01    -1.19280215e+02    5.69001781e-02    8.97913521e+01    
4760000000   6.09258045e-02    -1.49464942e+02    9.93166475e-01    -1.20293978e+02    9.93166475e-01    -1.20293978e+02    5.74043877e-02    8.82925179e+01    
4800000000   6.14213830e-02    -1.50044084e+02    9.93116185e-01    -1.21307986e+02    9.93116185e-01    -1.21307986e+02    5.79100707e-02    8.67961030e+01    
4840000000   6.19107416e-02    -1.50617782e+02    9.93066174e-01    -1.22322264e+02    9.93066174e-01    -1.22322264e+02    5.84174283e-02    8.53018147e+01    
4880000000   6.23948158e-02    -1.51184996e+02    9.93016256e-01    -1.23336836e+02    9.93016256e-01    -1.23336836e+02    5.89266931e-02    8.38093167e+01    
4920000000   6.28747576e-02    -1.51744865e+02    9.92966189e-01    -1.24351723e+02    9.92966189e-01    -1.24351723e+02    5.94381279e-02    8.23182414e+01    
4960000000   6.33519036e-02    -1.52296739e+02    9.92915678e-01    -1.25366943e+02    9.92915678e-01    -1.25366943e+02    5.99520245e-02    8.08282011e+01    
5000000000   6.38277380e-02    -1.52840192e+02    9.92864389e-01    -1.26382511e+02    9.92864389e-01    -1.26382511e+02    6.04687016e-02    7.93387999e+01    
5040000000   6.43038506e-02    -1.53375039e+02    9.92811957e-01    -1.27398439e+02    9.92811957e-01    -1.27398439e+02    6.09885008e-02    7.78496440e+01    
5080000000   6.47818915e-02    -1.53901339e+02    9.92758000e-01    -1.28414733e+02    9.92758000e-01    -1.28414733e+02    6.15117830e-02    7.63603514e+01    
5120000000   6.52635230e-02    -1.54419396e+02    9.92702125e-01    -1.29431395e+02    9.92702125e-01    -1.29431395e+02    6.20389232e-02    7.48705617e+01    
5160000000   6.57503715e-02    -1.54929745e+02    9.92643947e-01    -1.30448426e+02    9.92643947e-01    -1.30448426e+02    6.25703048e-02    7.33799437e+01    
5200000000   6.62439802e-02    -1.55433141e+02    9.92583096e-01    -1.31465818e+02    9.92583096e-01    -1.31465818e+02    6.31063130e-02    7.18882036e+01    
5240000000   6.67457639e-02    -1.55930531e+02    9.92519229e-01    -1.32483564e+02    9.92519229e-01    -1.32483564e+02    6.36473288e-02    7.03950910e+01    
5280000000   6.72569687e-02    -1.56423025e+02    9.92452040e-01    -1.33501651e+02    9.92452040e-01    -1.33501651e+02    6.41937210e-02    6.89004054e+01    
5320000000   6.77786366e-02    -1.56911864e+02    9.92381269e-01    -1.34520064e+02    9.92381269e-01    -1.34520064e+02    6.47458402e-02    6.74040001e+01    
5360000000   6.83115771e-02    -1.57398379e+02    9.92306705e-01    -1.35538784e+02    9.92306705e-01    -1.35538784e+02    6.53040110e-02    6.59057865e+01    
5400000000   6.88563467e-02    -1.57883950e+02    9.92228194e-01    -1.36557793e+02    9.92228194e-01    -1.36557793e+02    6.58685259e-02    6.44057365e+01    
5440000000   6.94132366e-02    -1.58369966e+02    9.92145642e-01    -1.37577070e+02    9.92145642e-01    -1.37577070e+02    6.64396387e-02    6.29038841e+01    
5480000000   7.35951914e-02    -1.59717159e+02    9.91796090e-01    -1.38630184e+02    9.91796090e-01    -1.38630184e+02    7.08052020e-02    6.32344132e+01    
5520000000   7.41898043e-02    -1.60299852e+02    9.91700030e-01    -1.39649327e+02    9.91700030e-01    -1.39649327e+02    7.13676691e-02    6.17838892e+01    
5560000000   7.47830005e-02    -1.60881453e+02    9.91601500e-01    -1.40668621e+02    9.91601500e-01    -1.40668621e+02    7.19223475e-02    6.03343197e+01    
5600000000   7.53750968e-02    -1.61462186e+02    9.91500531e-01    -1.41688060e+02    9.91500531e-01    -1.41688060e+02    7.24692574e-02    5.88859573e+01    
5640000000   7.59664028e-02    -1.62042306e+02    9.91397159e-01    -1.42707638e+02    9.91397159e-01    -1.42707638e+02    7.30084662e-02    5.74390369e+01    
5680000000   7.65572137e-02    -1.62622098e+02    9.91291432e-01    -1.43727349e+02    9.91291432e-01    -1.43727349e+02    7.35400883e-02    5.59937746e+01    
5720000000   7.71478028e-02    -1.63201876e+02    9.91183406e-01    -1.44747188e+02    9.91183406e-01    -1.44747188e+02    7.40642844e-02    5.45503670e+01    
5760000000   7.77384130e-02    -1.63781982e+02    9.91073147e-01    -1.45767148e+02    9.91073147e-01    -1.45767148e+02    7.45812616e-02    5.31089909e+01    
5800000000   7.83292483e-02    -1.64362779e+02    9.90960730e-01    -1.46787223e+02    9.90960730e-01    -1.46787223e+02    7.50912742e-02    5.16698025e+01    
5840000000   7.89204650e-02    -1.64944651e+02    9.90846241e-01    -1.47807406e+02    9.90846241e-01    -1.47807406e+02    7.55946250e-02    5.02329365e+01    
5880000000   7.95121631e-02    -1.65527993e+02    9.90729777e-01    -1.48827691e+02    9.90729777e-01    -1.48827691e+02    7.60916663e-02    4.87985044e+01    
