! Touchstone file from project TestMultiLine
! Exported from HFSS 14.0.0
! Variables:
!  gap = 0mm
!  hair = 35mm
!  hsub = 0.762mm
!  l = 28mm
!  lair = 40mm
!  lmic = 14mm
!  w = 25mm
!  wair = 40mm
!  wmic = 2.1mm
!Data is not renormalized
# GHZ S MA
! Modal data exported
! Port[1] = 1:1
1                0.995557536838912 125.155482781135 
1.04             0.995459105337993 122.95544628709  
1.08             0.995358188071949 120.754676978969 
1.12             0.995254931114372 118.553147810963 
1.16             0.99514948374703 116.350832000827 
1.2              0.995041998217646 114.147703062688 
1.24             0.994932629491306 111.943734841896 
1.28             0.994821534995754 109.738901551921 
1.32             0.994708874360825 107.533177813265 
1.36             0.994594809152309 105.32653869438  
1.4              0.994479502600505 103.11895975455  
1.44             0.994363119323778 100.910417088711 
1.48             0.994245825047425 98.7008873741416 
1.52             0.994127786318154 96.4903479189906 
1.56             0.994009170214532 94.2787767125609 
1.6              0.993890144053731 92.0661524772835 
1.64             0.993770875094945 89.8524547223    
1.68             0.993651530239859 87.6376637985628 
1.72             0.993532275730553 85.4217609553549 
1.76             0.993413276845277 83.2047283981224 
1.8              0.993294697592506 80.9865493475046 
1.84             0.993176700403739 78.7672080994381 
1.88             0.99305944582552 76.5466900862022 
1.92             0.992943092211163 74.3249819382665 
1.96             0.992827795412695 72.1020715467916 
2                0.992713708473567 69.8779481266275 
2.04             0.992600981322677 67.6526022796462 
2.08             0.992489760470297 65.4260260582376 
2.12             0.992380188706507 63.1982130287898 
2.16             0.992272404802755 60.9691583349704 
2.2              0.99216654321721 58.7388587606179 
2.24             0.992062733804571 56.5073127920439 
2.28             0.991961101531026 54.2745206795462 
2.32             0.99186176619508 52.0404844979234 
2.36             0.991764842154998 49.8052082057796 
2.4              0.9916704380636  47.5686977034025 
2.44             0.991578656611194 45.3309608889956 
2.48             0.991489594277441 43.0920077130415 
2.52             0.991403341092934 40.8518502305731 
2.56             0.991319980411318 38.6105026511259 
2.6              0.991239588692786 36.3679813861446 
2.64             0.991162235299742 34.1243050936201 
2.68             0.991087982305494 31.8794947197294 
2.72             0.991016884316792 29.6335735372556 
2.76             0.990948988311033 27.3865671805701 
2.8              0.990884333488948 25.138503676957  
2.84             0.990822951143577 22.8894134740705 
2.88             0.990764864546299 20.6393294633179 
2.92             0.990710088850691 18.3882869989694 
2.96             0.990658631014947 16.1363239128019 
3                0.990610489743534 13.883480524096  
3.04             0.990565655448775 11.6297996448098 
3.08             0.990524110232937 9.37532657976918 
3.12             0.990485827891429 7.12010912172312 
3.16             0.990450773937585 4.86419754112506 
3.2              0.990418905649505 2.60764457051699 
3.24             0.990390172139326 0.350505383404521 
3.28             0.990364514445239 -1.9071624324698 
3.32             0.990341865646496 -4.16529890753487 
3.36             0.990322151001551 -6.42384172854129 
3.4              0.990305288109412 -8.68272628249787 
3.44             0.990291187094194 -10.941885706419 
3.48             0.990279750812741 -13.2012509428892 
3.52             0.990270875085139 -15.4607508014318 
3.56             0.990264448947777 -17.7203120256475 
3.6              0.990260354928587 -19.9798593660714 
3.64             0.990258469343925 -22.2393156586717 
3.68             0.990258662616481 -24.4986019088992 
3.72             0.990260799613525 -26.7576373811691 
3.76             0.990264740004636 -29.0163396936425 
3.8              0.990270338638014 -31.2746249181505 
3.84             0.990277445934338 -33.5324076850862 
3.88             0.990285908297062 -35.7896012930688 
3.92             0.990295568537925 -38.0461178231672 
3.96             0.990306266316379 -40.3018682574495 
4                0.990317838591538 -42.556762601611 
4.04             0.990330120085197 -44.8107100114123 
4.08             0.990342943754364 -47.0636189226485 
4.12             0.990356141271716 -49.3153971843511 
4.16             0.990369543512314 -51.5659521949157 
4.2              0.990382981044849 -53.8151910408323 
4.24             0.990396284625708 -56.0630206376882 
4.28             0.990409285694027 -58.3093478731008 
4.32             0.990421816865973 -60.5540797512326 
4.36             0.990433712426395 -62.7971235385341 
4.4              0.990444808816069 -65.038386910353 
4.44             0.990454945112689 -67.277778098049 
4.48             0.990463963503815 -69.5152060362504 
4.52             0.990471709750044 -71.7505805098866 
4.56             0.990478033636628 -73.9838123006377 
4.6              0.990482789411894 -76.2148133324404 
4.64             0.990485836210808 -78.4434968156985 
4.68             0.99048703846215 -80.6697773898504 
4.72             0.990486266277801 -82.8935712639552 
4.76             0.99048339582271 -85.1147963549689 
4.8              0.990478309664273 -87.3333724233918 
4.84             0.990470897099834 -89.5492212059818 
4.88             0.99046105446123 -91.7622665452407 
4.92             0.990448685395352 -93.9724345153958 
4.96             0.990433701119762 -96.179653544614 
5                0.99041602065265 -98.3838545332036 
5.04             0.990395571016349 -100.584970967573 
5.08             0.990372287413918 -102.78293902974 
5.12             0.990346113378297 -104.977697702191 
5.16             0.990317000893692 -107.169188867932 
5.2              0.990284910489012 -109.357357405558 
5.24             0.990249811303205 -111.542151279227 
5.28             0.990211681122527 -113.72352162341 
5.32             0.990170506389858 -115.901422822331 
5.36             0.990126282186272 -118.075812584013 
5.4              0.990079012185197 -120.246652008889 
5.44             0.99002870857959 -122.413905652933 
5.48             0.989975391982606 -124.577541585286 
5.52             0.989919091302403 -126.7375314404  
5.56             0.989859843591724 -128.893850464697 
5.6              0.989797693873009 -131.046477557794 
5.64             0.989732694939882 -133.195395308335 
5.68             0.989664907135843 -135.340590024511 
5.72             0.989594398111152 -137.482051759339 
5.76             0.989521242558818 -139.619774330798 
5.8              0.989445521930787 -141.753755336948 
5.84             0.989367324135304 -143.883996166128 
5.88             0.98928674321659 -146.010502002387 
5.92             0.989203879017909 -148.13328182628 
5.96             0.989118836829145 -150.252348411191 
6                0.989031727020015 -152.367718315324 
6.04             0.98894266466007 -154.47941186956 
6.08             0.988851769126586 -156.587453161321 
6.12             0.988759163701509 -158.691870014643 
6.16             0.988664975158536 -160.792693966631 
6.2              0.988569333341484 -162.889960240481 
6.24             0.988472370735   -164.983707715266 
6.28             0.988374222028712 -167.073978892663 
6.32             0.988275023675869 -169.160819860825 
6.36             0.988174913447495 -171.244280255574 
6.4              0.988074029983083 -173.324413219123 
6.44             0.98797251233879 -175.401275356494 
6.48             0.987870499534114 -177.47492668983 
6.52             0.987768130097975 -179.545430610781 
6.56             0.987665541615107 178.387146168858 
6.6              0.987562870273655 176.322733668084 
6.64             0.987460250414825 174.26125868903  
6.68             0.987357814085442 172.202644870543 
6.72             0.987255690594223 170.14681274285  
6.76             0.987154006072568 168.093679783143 
6.8              0.987052883040664 166.043160471958 
6.84             0.986952439979659 163.995166350183 
6.88             0.986852790910684 161.949606076584 
6.92             0.98675404498147 159.906385485705 
6.96             0.986656306061311 157.865407646043 
7                0.986559672345136 155.826572918362 
7.04             0.986464235967423 153.789779014071 
7.08             0.986370082626749 151.754921053545 
7.12             0.986277291221719 149.721891624315 
7.16             0.986185933499082 147.690580839045 
7.2              0.986096073714846 145.660876393225 
7.24             0.986007768309199 143.632663622505 
7.28             0.985921065596137 141.605825559636 
7.32             0.985836005468658 139.580242990945 
7.36             0.985752619120455 137.555794512322 
7.4              0.985670928785101 135.532356584679 
7.44             0.985590947493724 133.509803588857 
7.48             0.985512678852229 131.488007879969 
7.52             0.985436116839203 129.466839841163 
7.56             0.985361245625665 127.446167936812 
7.6              0.985288039417904 125.425858765134 
7.64             0.98521646232469 123.405777110254 
7.68             0.985146468250266 121.385785993737 
7.72             0.9850780008145  119.365746725614 
7.76             0.985010993301771 117.345518954949 
7.8              0.984945368640161 115.324960719977 
7.84             0.984881039412603 113.303928497875 
7.88             0.984817907901778 111.282277254234 
7.92             0.984755866170588 109.259860492274 
7.96             0.984694796180115 107.236530301904 
8                0.984634569947109 105.212137408692 
8.04             0.984575049743072 103.18653122284  
8.08             0.984516088337171 101.159559888263 
8.12             0.984457529285192 99.1310703318741 
8.16             0.984399207266962 97.1009083131841 
8.2              0.984340948474642 95.0689184743467 
8.24             0.984282571054421 93.0349443907647 
8.28             0.984223885604218 90.9988286224005 
8.32             0.984164695730078 88.9604127659309 
8.36             0.984104798663979 86.9195375078989 
8.4              0.984043985945855 84.8760426790228 
8.44             0.983982044172724 82.8297673098278 
8.48             0.98391875581776 80.780549687781  
8.52             0.983853900122282 78.7282274161105 
8.56             0.983787254063599 76.6726374745065 
8.6              0.983718593401667 74.6136162819041 
8.64             0.983647693807494 72.5509997615625 
8.68             0.983574332076253 70.48462340866   
8.72             0.983498287427952 68.4143223606388 
8.76             0.983419342898507 66.3399314705373 
8.8              0.983337286823938 64.2612853835626 
8.84             0.983251914420301 62.1782186171643 
8.88             0.983163029461894 60.0905656448794 
8.92             0.983070446059988 57.9981609842317 
8.96             0.98297399054428 55.9008392889762 
9                0.982873503448894 53.7984354459929 
9.04             0.982768841604633 51.6907846771415 
9.08             0.982659880338754 49.5777226464025 
9.12             0.982546515783267 47.4590855726392 
9.16             0.982428667292365 45.3347103483244 
9.2              0.982306279969138 43.2044346645871 
9.24             0.982179327301253 41.068097142945  
9.28             0.982047813904768 38.9255374740962 
9.32             0.981911778374649 36.776596564152  
9.36             0.981771296239937 34.6211166887021 
9.4              0.981626483020829 32.45894165511   
9.44             0.981477497384173 30.2899169734402 
9.48             0.981324544393103 28.1138900364261 
9.52             0.981167878845667 25.9307103088879 
9.56             0.981007808696396 23.7402295270089 
9.6              0.980844698553771 21.5423019078804 
9.64             0.980678973245544 19.3367843697197 
9.68             0.980511121442777 17.1235367631535 
9.72             0.980341699332299 14.9024221139548 
9.76             0.980171334326148 12.6733068775996 
9.8              0.980000728795297 10.4360612059928 
9.84             0.979830663813705 8.19055922668672 
9.88             0.979662002897411 5.93667933488435 
9.92             0.979495695722107 3.67430449847963 
9.96             0.979332781801184 1.40332257634729 
10               0.979174394104968 -0.876373349963866 
10.04            0.978973179299117 -3.16619840429941 
10.08            0.978774662064062 -5.4647841756706 
10.12            0.978578665969107 -7.77226857658656 
10.16            0.978384996481628 -10.088779769637 
10.2             0.97819344379757 -12.4144357812678 
10.24            0.978003785612387 -14.7493441138503 
10.28            0.977815789831287 -17.0936013571057 
10.32            0.977629217217134 -19.4472928000774 
10.36            0.977443823973822 -21.8104920449765 
10.4             0.977259364262392 -24.1832606243548 
10.44            0.977075592646606 -26.5656476231897 
10.48            0.976892266464136 -28.957689307592 
10.52            0.976709148119011 -31.3594087619649 
10.56            0.976526007290419 -33.7708155365641 
10.6             0.976342623052492 -36.1919053075147 
10.64            0.976158785899247 -38.6226595514393 
10.68            0.975974299668456 -41.0630452369471 
10.72            0.975788983357865 -43.513014535306 
10.76            0.97560267282693 -45.9725045526886 
10.8             0.975415222377015 -48.4414370864306 
10.84            0.975226506202893 -50.9197184077728 
10.88            0.975036419708391 -53.4072390735713 
10.92            0.974844880679088 -55.9038737694536 
10.96            0.974651830305169 -58.4094811868714 
11               0.974457234047886 -60.9239039364457 
11.04            0.974261082343458 -63.446968499928 
11.08            0.974063391138857 -65.9784852229955 
11.12            0.973864202254559 -68.518248350974 
11.16            0.973663583570187 -71.0660361094274 
11.2             0.973461629029868 -73.6216108313674 
11.24            0.973258458465184 -76.1847191326386 
11.28            0.973054217234747 -78.7550921367918 
11.32            0.972849075680673 -81.3324457505044 
11.36            0.97264322840355 -83.9164809903282 
11.4             0.972436893358916 -86.5068843612345 
11.44            0.972230310779708 -89.103328287111 
11.48            0.97202374193062 -91.7054715930217 
11.52            0.971817467701842 -94.31296003869  
11.56            0.971611787051094 -96.9254269023001 
11.6             0.971407015304399 -99.5424936133459 
11.64            0.971203482327369 -102.16377043288 
11.68            0.971001530580176 -104.78885717915 
11.72            0.970801513070551 -107.417343996239 
11.76            0.970603791220293 -110.04881216298 
11.8             0.970408732661707 -112.682834939077 
11.84            0.970216708981192 -115.318978445032 
11.88            0.97002809342781 -117.956802572204 
11.92            0.9698432586051  -120.595861919041 
11.96            0.969662574164588 -123.235706749309 
12               0.969486404519495 -125.875883967915 
12.04            0.969315106596902 -128.515938109784 
12.08            0.969149027646227 -131.155412337128 
12.12            0.968988503121248 -133.793849440331 
12.16            0.968833854652074 -136.430792837692 
12.2             0.968685388122446 -139.06578756922 
12.24            0.968543391866584 -141.698381279775 
12.28            0.968408134998447 -144.328125186896 
12.32            0.968279865884788 -146.954575028847 
12.36            0.968158810771848 -149.577291988531 
12.4             0.968045172573803 -152.195843589182 
12.44            0.967939129829435 -154.80980455797 
12.48            0.967840835831647 -157.418757653936 
12.52            0.967750417932766 -160.022294456977 
12.56            0.967667977026757 -162.620016114944 
12.6             0.967593587207821 -165.211534046243 
12.64            0.967527295603157 -167.796470595708 
12.68            0.967469122376174 -170.37445964187 
12.72            0.967419060894909 -172.945147154132 
12.76            0.967377078059148 -175.508191698745 
12.8             0.967343114778485 -178.063264892817 
12.84            0.967317086592544 179.389948194001 
12.88            0.967298884423621 176.851748690193 
12.92            0.967288375451295 174.322423625102 
12.96            0.967285404097916 171.802245683066 
13               0.967289793113452 169.291473008046 
13.04            0.967301344747859 166.790349057514 
13.08            0.967319841998965 164.299102504163 
13.12            0.967345049923895 161.817947183727 
13.16            0.967376717002091 159.347082087032 
13.2             0.967414576538267 156.88669139421  
13.24            0.967458348093936 154.436944548856 
13.28            0.967507738936572 151.997996369804 
13.32            0.967562445495987 149.569987198085 
13.36            0.967622154818041 147.153043076571 
13.4             0.967686546006477 144.747275959769 
13.44            0.967755291644293 142.352783951186 
13.48            0.967828059186808 139.969651565713 
13.52            0.96790451231927 137.597950014466 
13.56            0.96798431227261 135.237737509587 
13.6             0.968067119091662 132.889059586522 
13.64            0.968152592850923 130.551949441407 
13.68            0.96824039481359 128.226428281232 
13.72            0.968330188530374 125.912505684557 
13.76            0.968421640875181 123.610179970659 
13.8             0.968514423015425 121.319438575082 
13.84            0.968608211315337 119.040258429681 
13.88            0.968702688171156 116.772606345361 
13.92            0.968797542777641 114.516439395833 
13.96            0.968892471825811 112.271705300823 
14               0.968987180132242 110.038342807304 
14.04            0.969081381200639 107.816282067407 
14.08            0.969174797716785 105.605445011823 
14.12            0.969267161978224 103.405745717598 
14.16            0.969358216260355 101.217090769334 
14.2             0.969447713120803 99.0393796129225 
14.24            0.969535415644171 96.8725049010414 
14.28            0.96962109762938 94.7163528297385 
14.32            0.969704543722003 92.5708034655159 
14.36            0.969785549494039 90.4357310624253 
14.4             0.969863921473676 88.3110043687598 
14.44            0.969939477127636 86.1964869230052 
14.48            0.970012044798703 84.0920373387908 
14.52            0.970081463601073 81.9975095786354 
14.56            0.970147583276116 79.912753216357  
14.6             0.970210264011125 77.8376136880594 
14.64            0.970269376223599 75.7719325316662 
14.68            0.970324800313517 73.7155476150153 
14.72            0.970376426386038 71.6682933525678 
14.76            0.970424153946937 69.6300009108236 
14.8             0.970467891573062 67.6004984025653 
14.84            0.970507556559953 65.5796110700822 
14.88            0.970543074548726 63.56716145755   
14.92            0.970574379134179 61.5629695727633 
14.96            0.970601411456032 59.5668530384344 
15               0.970624119775071 57.578627233286  
15.04            0.970642459035886 55.5981054231825 
15.08            0.970656390417806 53.6250988825444 
15.12            0.970665880875515 51.6594170063079 
15.16            0.970670902670743 49.7008674126865 
15.2             0.970671432896351 47.7492560370031 
15.24            0.970667452994006 45.8043872168569 
15.28            0.970658948266578 43.8660637688879 
15.32            0.970645907386298 41.934087057407  
15.36            0.970628321899619 40.0082570551486 
15.4             0.970606185729676 38.0883723964021 
15.44            0.970579494677122 36.1742304227754 
15.48            0.970548245920085 34.2656272218354 
15.52            0.970512437513886 32.3623576588602 
15.56            0.970472067891134 30.4642154019423 
15.6             0.970427135362702 28.5709929406597 
15.64            0.970377637620081 26.6824815985347 
15.68            0.970323571239521 24.7984715394874 
15.72            0.970264931188325 22.9187517684838 
