! Multiline TRL de-embedded results 
! Powered by MTRL v0.1 based on Matlab. Written by Simon.
! 29-Mar-2016 20:37:40
# hz S ma R 50
1000000000   1.20450144e-01    -1.09693798e+02    9.91178188e-01    -2.06512232e+01    9.91178188e-01    -2.06512232e+01    1.20473749e-01    -1.12296696e+02    
1040000000   1.25395271e-01    -1.10796533e+02    9.90522016e-01    -2.14765243e+01    9.90522016e-01    -2.14765243e+01    1.25551077e-01    -1.13006165e+02    
1080000000   1.30315554e-01    -1.11887490e+02    9.89835381e-01    -2.23027552e+01    9.89835381e-01    -2.23027552e+01    1.30656883e-01    -1.13727277e+02    
1120000000   1.35179036e-01    -1.12975338e+02    9.89118040e-01    -2.31295801e+01    9.89118040e-01    -2.31295801e+01    1.35785192e-01    -1.14460501e+02    
1160000000   1.39915102e-01    -1.14075668e+02    9.88370463e-01    -2.39562341e+01    9.88370463e-01    -2.39562341e+01    1.40923334e-01    -1.15207064e+02    
1200000000   1.44336258e-01    -1.15222104e+02    9.87596670e-01    -2.47806930e+01    9.87596670e-01    -2.47806930e+01    1.46039034e-01    -1.15970068e+02    
1240000000   1.47751051e-01    -1.16503289e+02    9.86826072e-01    -2.55958623e+01    9.86826072e-01    -2.55958623e+01    1.51017420e-01    -1.16756962e+02    
1280000000   1.44751094e-01    -1.17884511e+02    9.86577884e-01    -2.63572214e+01    9.86577884e-01    -2.63572214e+01    1.55017352e-01    -1.17516369e+02    
1320000000   1.69394991e-01    -1.12144659e+02    9.86905256e-01    -2.74556606e+01    9.86905256e-01    -2.74556606e+01    1.63645013e-01    -1.17322339e+02    
1360000000   1.71820636e-01    -1.16888461e+02    9.84489732e-01    -2.82197797e+01    9.84489732e-01    -2.82197797e+01    1.68485081e-01    -1.18721655e+02    
1400000000   1.75808831e-01    -1.18454380e+02    9.83379662e-01    -2.90413292e+01    9.83379662e-01    -2.90413292e+01    1.73652943e-01    -1.19601991e+02    
1440000000   1.80561937e-01    -1.19616526e+02    9.82345807e-01    -2.98771433e+01    9.82345808e-01    -2.98771433e+01    1.78983806e-01    -1.20427682e+02    
1480000000   1.85630682e-01    -1.20650189e+02    9.81303968e-01    -3.07193711e+01    9.81303968e-01    -3.07193711e+01    1.84394616e-01    -1.21241636e+02    
1520000000   1.90872293e-01    -1.21625069e+02    9.80235977e-01    -3.15658291e+01    9.80235977e-01    -3.15658291e+01    1.89858631e-01    -1.22054090e+02    
1560000000   1.96228644e-01    -1.22567366e+02    9.79135427e-01    -3.24157140e+01    9.79135427e-01    -3.24157140e+01    1.95364291e-01    -1.22868628e+02    
1600000000   2.01671733e-01    -1.23489526e+02    9.77999228e-01    -3.32686898e+01    9.77999228e-01    -3.32686898e+01    2.00905223e-01    -1.23686808e+02    
1640000000   2.07186287e-01    -1.24398502e+02    9.76825514e-01    -3.41246158e+01    9.76825514e-01    -3.41246158e+01    2.06476972e-01    -1.24509416e+02    
1680000000   2.12763087e-01    -1.25298683e+02    9.75612977e-01    -3.49834471e+01    9.75612977e-01    -3.49834471e+01    2.12075556e-01    -1.25336891e+02    
1720000000   2.18396070e-01    -1.26193113e+02    9.74360608e-01    -3.58451978e+01    9.74360608e-01    -3.58451978e+01    2.17696495e-01    -1.26169477e+02    
1760000000   2.24081008e-01    -1.27084087e+02    9.73067563e-01    -3.67099320e+01    9.73067563e-01    -3.67099320e+01    2.23333727e-01    -1.27007220e+02    
1800000000   2.29814957e-01    -1.27973505e+02    9.71732973e-01    -3.75777814e+01    9.71732973e-01    -3.75777814e+01    2.28977794e-01    -1.27849762e+02    
1840000000   2.35596074e-01    -1.28863247e+02    9.70355277e-01    -3.84489997e+01    9.70355277e-01    -3.84489997e+01    2.34612433e-01    -1.28695543e+02    
1880000000   2.41422987e-01    -1.29755871e+02    9.68929450e-01    -3.93240818e+01    9.68929450e-01    -3.93240818e+01    2.40209325e-01    -1.29538891e+02    
1920000000   2.47288310e-01    -1.30656172e+02    9.67435289e-01    -4.02038021e+01    9.67435289e-01    -4.02038021e+01    2.45737258e-01    -1.30359760e+02    
1960000000   2.53141888e-01    -1.31569733e+02    9.65809726e-01    -4.10870530e+01    9.65809726e-01    -4.10870530e+01    2.51331313e-01    -1.31109068e+02    
2000000000   2.58903650e-01    -1.32474486e+02    9.64068865e-01    -4.19647920e+01    9.64068865e-01    -4.19647920e+01    2.57566343e-01    -1.31840298e+02    
2040000000   2.64724833e-01    -1.33352231e+02    9.62424007e-01    -4.28402860e+01    9.62424007e-01    -4.28402860e+01    2.64014687e-01    -1.32722007e+02    
2080000000   2.70649785e-01    -1.34232839e+02    9.60802268e-01    -4.37228603e+01    9.60802268e-01    -4.37228603e+01    2.70139154e-01    -1.33651098e+02    
2120000000   2.76617734e-01    -1.35121901e+02    9.59128053e-01    -4.46109702e+01    9.59128053e-01    -4.46109702e+01    2.76117191e-01    -1.34569504e+02    
2160000000   2.82607006e-01    -1.36016490e+02    9.57393759e-01    -4.55029875e+01    9.57393759e-01    -4.55029875e+01    2.82063273e-01    -1.35477959e+02    
2200000000   2.88612376e-01    -1.36914647e+02    9.55602447e-01    -4.63983108e+01    9.55602447e-01    -4.63983108e+01    2.88014436e-01    -1.36381866e+02    
2240000000   2.94632690e-01    -1.37815313e+02    9.53756794e-01    -4.72967349e+01    9.53756794e-01    -4.72967349e+01    2.93982824e-01    -1.37284580e+02    
2280000000   3.00668073e-01    -1.38717857e+02    9.51858393e-01    -4.81981958e+01    9.51858393e-01    -4.81981958e+01    2.99973100e-01    -1.38187943e+02    
2320000000   3.06719329e-01    -1.39621865e+02    9.49908086e-01    -4.91026878e+01    9.49908086e-01    -4.91026878e+01    3.05987668e-01    -1.39092974e+02    
2360000000   3.12787818e-01    -1.40527051e+02    9.47906225e-01    -5.00102334e+01    9.47906225e-01    -5.00102334e+01    3.12028338e-01    -1.40000256e+02    
2400000000   3.18875403e-01    -1.41433229e+02    9.45852813e-01    -5.09208727e+01    9.45852813e-01    -5.09208727e+01    3.18096915e-01    -1.40910145e+02    
2440000000   3.24984400e-01    -1.42340295e+02    9.43747562e-01    -5.18346587e+01    9.43747562e-01    -5.18346587e+01    3.24195391e-01    -1.41822878e+02    
2480000000   3.31117520e-01    -1.43248229e+02    9.41589923e-01    -5.27516553e+01    9.41589923e-01    -5.27516553e+01    3.30326002e-01    -1.42738636e+02    
2520000000   3.37277789e-01    -1.44157086e+02    9.39379081e-01    -5.36719357e+01    9.39379081e-01    -5.36719357e+01    3.36491224e-01    -1.43657580e+02    
2560000000   3.43468464e-01    -1.45066992e+02    9.37113954e-01    -5.45955815e+01    9.37113954e-01    -5.45955815e+01    3.42693730e-01    -1.44579872e+02    
2600000000   3.49692950e-01    -1.45978139e+02    9.34793179e-01    -5.55226814e+01    9.34793179e-01    -5.55226814e+01    3.48936336e-01    -1.45505689e+02    
2640000000   3.55954713e-01    -1.46890774e+02    9.32415107e-01    -5.64533302e+01    9.32415107e-01    -5.64533302e+01    3.55221939e-01    -1.46435225e+02    
2680000000   3.62257207e-01    -1.47805192e+02    9.29977796e-01    -5.73876280e+01    9.29977796e-01    -5.73876280e+01    3.61553449e-01    -1.47368691e+02    
2720000000   3.68603810e-01    -1.48721722e+02    9.27479012e-01    -5.83256786e+01    9.27479012e-01    -5.83256786e+01    3.67933724e-01    -1.48306317e+02    
2760000000   3.75781133e-01    -1.49573825e+02    9.25218356e-01    -5.91847384e+01    9.25218356e-01    -5.91847384e+01    3.74177620e-01    -1.49179336e+02    
2800000000   3.82457608e-01    -1.50504126e+02    9.22480749e-01    -6.01314371e+01    9.22480749e-01    -6.01314371e+01    3.80991647e-01    -1.50106434e+02    
2840000000   3.89183283e-01    -1.51437245e+02    9.19664311e-01    -6.10827420e+01    9.19664311e-01    -6.10827420e+01    3.87862561e-01    -1.51041047e+02    
2880000000   3.95959592e-01    -1.52373578e+02    9.16766664e-01    -6.20387498e+01    9.16766664e-01    -6.20387498e+01    3.94788245e-01    -1.51983344e+02    
2920000000   4.02787723e-01    -1.53313537e+02    9.13785382e-01    -6.29995551e+01    9.13785382e-01    -6.29995551e+01    4.01766553e-01    -1.52933438e+02    
2960000000   4.09668603e-01    -1.54257534e+02    9.10717998e-01    -6.39652505e+01    9.10717998e-01    -6.39652505e+01    4.08795336e-01    -1.53891394e+02    
3000000000   4.16602884e-01    -1.55205982e+02    9.07562023e-01    -6.49359269e+01    9.07562023e-01    -6.49359269e+01    4.15872470e-01    -1.54857234e+02    
3040000000   4.23590936e-01    -1.56159281e+02    9.04314950e-01    -6.59116741e+01    9.04314950e-01    -6.59116741e+01    4.22995889e-01    -1.55830943e+02    
3080000000   4.30632859e-01    -1.57117818e+02    9.00974268e-01    -6.68925810e+01    9.00974268e-01    -6.68925810e+01    4.30163621e-01    -1.56812474e+02    
3120000000   4.37728493e-01    -1.58081957e+02    8.97537462e-01    -6.78787371e+01    8.97537462e-01    -6.78787371e+01    4.37373821e-01    -1.57801753e+02    
3160000000   4.44877441e-01    -1.59052040e+02    8.94002015e-01    -6.88702327e+01    8.94002015e-01    -6.88702327e+01    4.44624808e-01    -1.58798684e+02    
3200000000   4.52079102e-01    -1.60028377e+02    8.90365408e-01    -6.98671607e+01    8.90365408e-01    -6.98671607e+01    4.51915095e-01    -1.59803157e+02    
3240000000   4.59332703e-01    -1.61011251e+02    8.86625111e-01    -7.08696172e+01    8.86625111e-01    -7.08696172e+01    4.59243423e-01    -1.60815048e+02    
3280000000   4.66637347e-01    -1.62000912e+02    8.82778576e-01    -7.18777028e+01    8.82778576e-01    -7.18777028e+01    4.66608788e-01    -1.61834231e+02    
3320000000   4.73992057e-01    -1.62997578e+02    8.78823221e-01    -7.28915238e+01    8.78823221e-01    -7.28915238e+01    4.74010458e-01    -1.62860579e+02    
3360000000   4.81395823e-01    -1.64001436e+02    8.74756417e-01    -7.39111932e+01    8.74756417e-01    -7.39111932e+01    4.81447995e-01    -1.63893969e+02    
3400000000   4.88847658e-01    -1.65012648e+02    8.70575464e-01    -7.49368319e+01    8.70575464e-01    -7.49368319e+01    4.88921263e-01    -1.64934290e+02    
3440000000   4.96346641e-01    -1.66031347e+02    8.66277573e-01    -7.59685694e+01    8.66277573e-01    -7.59685694e+01    4.96430434e-01    -1.65981443e+02    
3480000000   5.03891970e-01    -1.67057647e+02    8.61859841e-01    -7.70065445e+01    8.61859841e-01    -7.70065445e+01    5.03975983e-01    -1.67035349e+02    
3520000000   5.11482996e-01    -1.68091643e+02    8.57319224e-01    -7.80509063e+01    8.57319224e-01    -7.80509063e+01    5.11558684e-01    -1.68095950e+02    
3560000000   5.19119265e-01    -1.69133420e+02    8.52652518e-01    -7.91018141e+01    8.52652518e-01    -7.91018141e+01    5.19179587e-01    -1.69163213e+02    
3600000000   5.26800541e-01    -1.70183055e+02    8.47856330e-01    -8.01594378e+01    8.47856330e-01    -8.01594378e+01    5.26840003e-01    -1.70237133e+02    
3640000000   5.34526823e-01    -1.71240624e+02    8.42927056e-01    -8.12239582e+01    8.42927056e-01    -8.12239582e+01    5.34541471e-01    -1.71317732e+02    
3680000000   5.42298357e-01    -1.72306207e+02    8.37860859e-01    -8.22955664e+01    8.37860859e-01    -8.22955664e+01    5.42285728e-01    -1.72405065e+02    
3720000000   5.50115629e-01    -1.73379894e+02    8.32653656e-01    -8.33744636e+01    8.32653656e-01    -8.33744636e+01    5.50074665e-01    -1.73499218e+02    
3760000000   5.57979352e-01    -1.74461787e+02    8.27301093e-01    -8.44608609e+01    8.27301093e-01    -8.44608609e+01    5.57910287e-01    -1.74600307e+02    
3800000000   5.65890445e-01    -1.75552006e+02    8.21798544e-01    -8.55549783e+01    8.21798544e-01    -8.55549783e+01    5.65794666e-01    -1.75708482e+02    
3840000000   5.73849993e-01    -1.76650694e+02    8.16141094e-01    -8.66570442e+01    8.16141094e-01    -8.66570442e+01    5.73729887e-01    -1.76823921e+02    
3880000000   5.81859211e-01    -1.77758014e+02    8.10323538e-01    -8.77672943e+01    8.10323538e-01    -8.77672943e+01    5.81717997e-01    -1.77946835e+02    
3920000000   5.89919391e-01    -1.78874159e+02    8.04340379e-01    -8.88859714e+01    8.04340379e-01    -8.88859714e+01    5.89760951e-01    -1.79077460e+02    
3960000000   5.98031847e-01    -1.79999344e+02    7.98185832e-01    -9.00133237e+01    7.98185832e-01    -9.00133237e+01    5.97860555e-01    1.79783939e+02    
4000000000   6.06197852e-01    1.78866187e+02    7.91853826e-01    -9.11496046e+01    7.91853826e-01    -9.11496046e+01    6.06018411e-01    1.78637074e+02    
4040000000   6.14418579e-01    1.77722164e+02    7.85338009e-01    -9.22950714e+01    7.85338009e-01    -9.22950714e+01    6.14235865e-01    1.77481636e+02    
4080000000   6.22695033e-01    1.76568292e+02    7.78631765e-01    -9.34499844e+01    7.78631765e-01    -9.34499844e+01    6.22513947e-01    1.76317295e+02    
4120000000   6.31027987e-01    1.75404255e+02    7.71728214e-01    -9.46146064e+01    7.71728214e-01    -9.46146064e+01    6.30853325e-01    1.75143705e+02    
4160000000   6.39417919e-01    1.74229714e+02    7.64620235e-01    -9.57892010e+01    7.64620235e-01    -9.57892010e+01    6.39254253e-01    1.73960509e+02    
4200000000   6.47864950e-01    1.73044314e+02    7.57300466e-01    -9.69740325e+01    7.57300466e-01    -9.69740325e+01    6.47716524e-01    1.72767335e+02    
4240000000   6.56368785e-01    1.71847684e+02    7.49761329e-01    -9.81693638e+01    7.49761329e-01    -9.81693638e+01    6.56239431e-01    1.71563807e+02    
4280000000   6.64928659e-01    1.70639445e+02    7.41995033e-01    -9.93754559e+01    7.41995033e-01    -9.93754559e+01    6.64821720e-01    1.70349544e+02    
4320000000   6.73543286e-01    1.69419206e+02    7.33993598e-01    -1.00592566e+02    7.33993598e-01    -1.00592566e+02    6.73461560e-01    1.69124162e+02    
4360000000   6.82210815e-01    1.68186575e+02    7.25748861e-01    -1.01820947e+02    7.25748861e-01    -1.01820947e+02    6.82156508e-01    1.67887280e+02    
4400000000   6.90928787e-01    1.66941159e+02    7.17252500e-01    -1.03060842e+02    7.17252500e-01    -1.03060842e+02    6.90903484e-01    1.66638520e+02    
4440000000   6.99694103e-01    1.65682569e+02    7.08496051e-01    -1.04312489e+02    7.08496051e-01    -1.04312489e+02    6.99698743e-01    1.65377515e+02    
4480000000   7.08502987e-01    1.64410421e+02    6.99470929e-01    -1.05576109e+02    6.99470929e-01    -1.05576109e+02    7.08537862e-01    1.64103904e+02    
4520000000   7.17350968e-01    1.63124343e+02    6.90168452e-01    -1.06851911e+02    6.90168452e-01    -1.06851911e+02    7.17415719e-01    1.62817342e+02    
4560000000   7.26232850e-01    1.61823975e+02    6.80579878e-01    -1.08140084e+02    6.80579878e-01    -1.08140084e+02    7.26326490e-01    1.61517497e+02    
4600000000   7.35142706e-01    1.60508975e+02    6.70696432e-01    -1.09440795e+02    6.70696432e-01    -1.09440795e+02    7.35263637e-01    1.60204056e+02    
4640000000   7.44073857e-01    1.59179020e+02    6.60509355e-01    -1.10754184e+02    6.60509355e-01    -1.10754184e+02    7.44219910e-01    1.58876727e+02    
4680000000   7.53018869e-01    1.57833809e+02    6.50009952e-01    -1.12080358e+02    6.50009952e-01    -1.12080358e+02    7.53187349e-01    1.57535239e+02    
4720000000   7.61969548e-01    1.56473066e+02    6.39189649e-01    -1.13419387e+02    6.39189649e-01    -1.13419387e+02    7.62157293e-01    1.56179343e+02    
4760000000   7.70916943e-01    1.55096541e+02    6.28040056e-01    -1.14771297e+02    6.28040056e-01    -1.14771297e+02    7.71120387e-01    1.54808820e+02    
4800000000   7.79851343e-01    1.53704015e+02    6.16553048e-01    -1.16136063e+02    6.16553048e-01    -1.16136063e+02    7.80066600e-01    1.53423473e+02    
4840000000   7.88762296e-01    1.52295299e+02    6.04720839e-01    -1.17513605e+02    6.04720839e-01    -1.17513605e+02    7.88985243e-01    1.52023138e+02    
4880000000   7.97638611e-01    1.50870239e+02    5.92536079e-01    -1.18903776e+02    5.92536079e-01    -1.18903776e+02    7.97864985e-01    1.50607676e+02    
4920000000   8.06468381e-01    1.49428715e+02    5.79991953e-01    -1.20306358e+02    5.79991953e-01    -1.20306358e+02    8.06693886e-01    1.49176983e+02    
4960000000   8.15239002e-01    1.47970645e+02    5.67082278e-01    -1.21721051e+02    5.67082278e-01    -1.21721051e+02    8.15459413e-01    1.47730981e+02    
5000000000   8.23937203e-01    1.46495985e+02    5.53801618e-01    -1.23147466e+02    5.53801618e-01    -1.23147466e+02    8.24148482e-01    1.46269629e+02    
5040000000   8.32549075e-01    1.45004734e+02    5.40145393e-01    -1.24585113e+02    5.40145393e-01    -1.24585113e+02    8.32747479e-01    1.44792916e+02    
5080000000   8.41060116e-01    1.43496931e+02    5.26109987e-01    -1.26033395e+02    5.26109987e-01    -1.26033395e+02    8.41242307e-01    1.43300864e+02    
5120000000   8.49455278e-01    1.41972660e+02    5.11692852e-01    -1.27491593e+02    5.11692852e-01    -1.27491593e+02    8.49618416e-01    1.41793533e+02    
5160000000   8.57719023e-01    1.40432051e+02    4.96892611e-01    -1.28958857e+02    4.96892611e-01    -1.28958857e+02    8.57860852e-01    1.40271012e+02    
5200000000   8.65835390e-01    1.38875280e+02    4.81709140e-01    -1.30434190e+02    4.81709140e-01    -1.30434190e+02    8.65954305e-01    1.38733429e+02    
5240000000   8.73788070e-01    1.37302571e+02    4.66143639e-01    -1.31916433e+02    4.66143639e-01    -1.31916433e+02    8.73883158e-01    1.37180946e+02    
5280000000   8.81560489e-01    1.35714194e+02    4.50198695e-01    -1.33404246e+02    4.50198695e-01    -1.33404246e+02    8.81631548e-01    1.35613764e+02    
5320000000   8.89135903e-01    1.34110472e+02    4.33878311e-01    -1.34896080e+02    4.33878311e-01    -1.34896080e+02    8.89183431e-01    1.34032117e+02    
5360000000   8.96497501e-01    1.32491772e+02    4.17187924e-01    -1.36390146e+02    4.17187924e-01    -1.36390146e+02    8.96522652e-01    1.32436280e+02    
5400000000   9.03628507e-01    1.30858509e+02    4.00134406e-01    -1.37884369e+02    4.00134406e-01    -1.37884369e+02    9.03633027e-01    1.30826562e+02    
5440000000   9.10512300e-01    1.29211145e+02    3.82726033e-01    -1.39376333e+02    3.82726033e-01    -1.39376333e+02    9.10498422e-01    1.29203311e+02    
5480000000   9.16078886e-01    1.27708906e+02    3.67040250e-01    -1.40631913e+02    3.67040250e-01    -1.40631913e+02    9.16083004e-01    1.27727955e+02    
5520000000   9.22488046e-01    1.26029013e+02    3.48932956e-01    -1.42120099e+02    3.48932956e-01    -1.42120099e+02    9.22483889e-01    1.26071299e+02    
5560000000   9.28602998e-01    1.24335445e+02    3.30484589e-01    -1.43596227e+02    3.30484589e-01    -1.43596227e+02    9.28592799e-01    1.24401361e+02    
5600000000   9.34407598e-01    1.22628928e+02    3.11709702e-01    -1.45055088e+02    3.11709702e-01    -1.45055088e+02    9.34393548e-01    1.22718764e+02    
5640000000   9.39886581e-01    1.20910231e+02    2.92624309e-01    -1.46490245e+02    2.92624309e-01    -1.46490245e+02    9.39870699e-01    1.21024170e+02    
5680000000   9.45025689e-01    1.19180158e+02    2.73245803e-01    -1.47893560e+02    2.73245803e-01    -1.47893560e+02    9.45009689e-01    1.19318275e+02    
5720000000   9.49811759e-01    1.17439534e+02    2.53592917e-01    -1.49254498e+02    2.53592917e-01    -1.49254498e+02    9.49796943e-01    1.17601800e+02    
5760000000   9.54232796e-01    1.15689203e+02    2.33685756e-01    -1.50559046e+02    2.33685756e-01    -1.50559046e+02    9.54219958e-01    1.15875484e+02    
5800000000   9.58278006e-01    1.13930016e+02    2.13545965e-01    -1.51787986e+02    2.13545965e-01    -1.51787986e+02    9.58267373e-01    1.14140074e+02    
5840000000   9.61937811e-01    1.12162821e+02    1.93197123e-01    -1.52914046e+02    1.93197123e-01    -1.52914046e+02    9.61929007e-01    1.12396322e+02    
5880000000   9.65203827e-01    1.10388458e+02    1.72665533e-01    -1.53896967e+02    1.72665533e-01    -1.53896967e+02    9.65195879e-01    1.10644973e+02    
