! Multiline TRL de-embedded results 
! Powered by MTRL v0.1 based on Matlab. Written by Simon.
! 29-Mar-2016 20:37:13
# hz S ma R 50
1000000000   1.20253539e-01    -1.30799109e+02    9.90908363e-01    -2.41687751e+01    9.90908363e-01    -2.41687751e+01    1.20605022e-01    -9.82264892e+01    
1040000000   1.25185500e-01    -1.32741804e+02    9.90245653e-01    -2.51340695e+01    9.90245653e-01    -2.51340695e+01    1.25691294e-01    -9.83759839e+01    
1080000000   1.30092693e-01    -1.34672800e+02    9.89553050e-01    -2.61003069e+01    9.89553050e-01    -2.61003069e+01    1.30806058e-01    -9.85370704e+01    
1120000000   1.34943275e-01    -1.36600795e+02    9.88830316e-01    -2.70671563e+01    9.88830317e-01    -2.70671563e+01    1.35943301e-01    -9.87101965e+01    
1160000000   1.39666799e-01    -1.38541421e+02    9.88077908e-01    -2.80338595e+01    9.88077908e-01    -2.80338595e+01    1.41090310e-01    -9.88965618e+01    
1200000000   1.44076124e-01    -1.40528376e+02    9.87299794e-01    -2.89984050e+01    9.87299794e-01    -2.89984050e+01    1.46214767e-01    -9.90992197e+01    
1240000000   1.47480928e-01    -1.42650521e+02    9.86525151e-01    -2.99537343e+01    9.86525151e-01    -2.99537343e+01    1.51201764e-01    -9.93254733e+01    
1280000000   1.44480352e-01    -1.44874336e+02    9.86270095e-01    -3.08555254e+01    9.86270095e-01    -3.08555254e+01    1.55210950e-01    -9.95231533e+01    
1320000000   1.69071853e-01    -1.39967506e+02    9.86591236e-01    -3.20928016e+01    9.86591236e-01    -3.20928016e+01    1.63853457e-01    -9.87737746e+01    
1360000000   1.71497164e-01    -1.45554667e+02    9.84180587e-01    -3.29974808e+01    9.84180587e-01    -3.29974808e+01    1.68696875e-01    -9.96108513e+01    
1400000000   1.75476449e-01    -1.47962288e+02    9.83069556e-01    -3.39593139e+01    9.83069556e-01    -3.39593139e+01    1.73872160e-01    -9.99300525e+01    
1440000000   1.80219143e-01    -1.49965962e+02    9.82034733e-01    -3.49353827e+01    9.82034733e-01    -3.49353827e+01    1.79210697e-01    -1.00194725e+02    
1480000000   1.85277147e-01    -1.51841233e+02    9.80992237e-01    -3.59178785e+01    9.80992237e-01    -3.59178785e+01    1.84629109e-01    -1.00447607e+02    
1520000000   1.90508018e-01    -1.53657879e+02    9.79923937e-01    -3.69046308e+01    9.79923937e-01    -3.69046308e+01    1.90100576e-01    -1.00698883e+02    
1560000000   1.95853755e-01    -1.55442135e+02    9.78823410e-01    -3.78948421e+01    9.78823410e-01    -3.78948421e+01    1.95613513e-01    -1.00952116e+02    
1600000000   2.01286406e-01    -1.57206464e+02    9.77687541e-01    -3.88881796e+01    9.77687541e-01    -3.88881796e+01    2.01161539e-01    -1.01208849e+02    
1640000000   2.06790716e-01    -1.58957835e+02    9.76514432e-01    -3.98845046e+01    9.76514432e-01    -3.98845046e+01    2.06740202e-01    -1.01469861e+02    
1680000000   2.12357466e-01    -1.60700645e+02    9.75302739e-01    -4.08837741e+01    9.75302739e-01    -4.08837741e+01    2.12345525e-01    -1.01735583e+02    
1720000000   2.17980577e-01    -1.62437945e+02    9.74051414e-01    -4.18860030e+01    9.74051414e-01    -4.18860030e+01    2.17973042e-01    -1.02006256e+02    
1760000000   2.23655798e-01    -1.64172034e+02    9.72759575e-01    -4.28912566e+01    9.72759575e-01    -4.28912566e+01    2.23616703e-01    -1.02281921e+02    
1800000000   2.29380147e-01    -1.65904819e+02    9.71426311e-01    -4.38996670e+01    9.71426311e-01    -4.38996670e+01    2.29267067e-01    -1.02562220e+02    
1840000000   2.35151734e-01    -1.67638180e+02    9.70050018e-01    -4.49114885e+01    9.70050018e-01    -4.49114885e+01    2.34907887e-01    -1.02845587e+02    
1880000000   2.40969125e-01    -1.69374676e+02    9.68625623e-01    -4.59272160e+01    9.68625623e-01    -4.59272160e+01    2.40510850e-01    -1.03126355e+02    
1920000000   2.46824862e-01    -1.71119097e+02    9.67132871e-01    -4.69476230e+01    9.67132871e-01    -4.69476230e+01    2.46044766e-01    -1.03384476e+02    
1960000000   2.52668809e-01    -1.72877006e+02    9.65508669e-01    -4.79715985e+01    9.65508669e-01    -4.79715985e+01    2.51644932e-01    -1.03570886e+02    
2000000000   2.58421170e-01    -1.74626319e+02    9.63769201e-01    -4.89900974e+01    9.63769201e-01    -4.89900974e+01    2.57886833e-01    -1.03739076e+02    
2040000000   2.64232856e-01    -1.76348897e+02    9.62125674e-01    -5.00063969e+01    9.62125674e-01    -5.00063969e+01    2.64342299e-01    -1.04057563e+02    
2080000000   2.70147817e-01    -1.78074601e+02    9.60505042e-01    -5.10298205e+01    9.60505042e-01    -5.10298205e+01    2.70473685e-01    -1.04423257e+02    
2120000000   2.76105300e-01    -1.79808987e+02    9.58831693e-01    -5.20588179e+01    9.58831693e-01    -5.20588179e+01    2.76458723e-01    -1.04778113e+02    
2160000000   2.82083612e-01    1.78450883e+02    9.57098012e-01    -5.30917585e+01    9.57098012e-01    -5.30917585e+01    2.82412069e-01    -1.05122875e+02    
2200000000   2.88077462e-01    1.76706983e+02    9.55307034e-01    -5.41280392e+01    9.55307034e-01    -5.41280392e+01    2.88370857e-01    -1.05462953e+02    
2240000000   2.94085615e-01    1.74960382e+02    9.53461409e-01    -5.51674523e+01    9.53461409e-01    -5.51674523e+01    2.94347300e-01    -1.05801710e+02    
2280000000   3.00108108e-01    1.73211725e+02    9.51562707e-01    -5.62099321e+01    9.51562707e-01    -5.62099321e+01    3.00346126e-01    -1.06140998e+02    
2320000000   3.06145662e-01    1.71461441e+02    9.49611748e-01    -5.72554701e+01    9.49611748e-01    -5.72554701e+01    3.06369795e-01    -1.06481845e+02    
2360000000   3.12199556e-01    1.69709831e+02    9.47608870e-01    -5.83040864e+01    9.47608870e-01    -5.83040864e+01    3.12420175e-01    -1.06824844e+02    
2400000000   3.18271576e-01    1.67957097e+02    9.45554063e-01    -5.93558184e+01    9.45554063e-01    -5.93558184e+01    3.18499119e-01    -1.07170363e+02    
2440000000   3.24363968e-01    1.66203358e+02    9.43447036e-01    -6.04107166e+01    9.43447036e-01    -6.04107166e+01    3.24608665e-01    -1.07518647e+02    
2480000000   3.30479381e-01    1.64448650e+02    9.41287237e-01    -6.14688421e+01    9.41287237e-01    -6.14688421e+01    3.30751093e-01    -1.07869889e+02    
2520000000   3.36620785e-01    1.62692935e+02    9.39073854e-01    -6.25302656e+01    9.39073854e-01    -6.25302656e+01    3.36928916e-01    -1.08224260e+02    
2560000000   3.42791387e-01    1.60936102e+02    9.36805813e-01    -6.35950660e+01    9.36805813e-01    -6.35950659e+01    3.43144838e-01    -1.08581934e+02    
2600000000   3.48994552e-01    1.59177972e+02    9.34481762e-01    -6.46633296e+01    9.34481762e-01    -6.46633296e+01    3.49401702e-01    -1.08943096e+02    
2640000000   3.55233710e-01    1.57418312e+02    9.32100066e-01    -6.57351491e+01    9.32100066e-01    -6.57351491e+01    3.55702430e-01    -1.09307949e+02    
2680000000   3.61512288e-01    1.55656842e+02    9.29658800e-01    -6.68106223e+01    9.29658800e-01    -6.68106223e+01    3.62049948e-01    -1.09676714e+02    
2720000000   3.67833645e-01    1.53893244e+02    9.27155750e-01    -6.78898509e+01    9.27155750e-01    -6.78898509e+01    3.68447128e-01    -1.10049628e+02    
2760000000   3.74983425e-01    1.52194351e+02    9.24890724e-01    -6.88900424e+01    9.24890724e-01    -6.88900424e+01    3.74708095e-01    -1.10358120e+02    
2800000000   3.81631421e-01    1.50416986e+02    9.22148325e-01    -6.99779184e+01    9.22148325e-01    -6.99779184e+01    3.81541317e-01    -1.10720508e+02    
2840000000   3.88327232e-01    1.48636819e+02    9.19326851e-01    -7.10703981e+01    9.19326851e-01    -7.10703981e+01    3.88432370e-01    -1.11090423e+02    
2880000000   3.95072294e-01    1.46853461e+02    9.16423950e-01    -7.21675766e+01    9.16423950e-01    -7.21675766e+01    3.95379130e-01    -1.11468037e+02    
2920000000   4.01867808e-01    1.45066511e+02    9.13437223e-01    -7.32695471e+01    9.13437223e-01    -7.32695471e+01    4.02379442e-01    -1.11853470e+02    
2960000000   4.08714715e-01    1.43275562e+02    9.10364230e-01    -7.43764011e+01    9.10364230e-01    -7.43764011e+01    4.09431139e-01    -1.12246791e+02    
3000000000   4.15613689e-01    1.41480211e+02    9.07202510e-01    -7.54882281e+01    9.07202510e-01    -7.54882281e+01    4.16532081e-01    -1.12648029e+02    
3040000000   4.22565133e-01    1.39680062e+02    9.03949587e-01    -7.66051169e+01    9.03949587e-01    -7.66051169e+01    4.23680178e-01    -1.13057172e+02    
3080000000   4.29569181e-01    1.37874735e+02    9.00602979e-01    -7.77271555e+01    9.00602979e-01    -7.77271555e+01    4.30873429e-01    -1.13474176e+02    
3120000000   4.36625718e-01    1.36063871e+02    8.97160203e-01    -7.88544324e+01    8.97160203e-01    -7.88544324e+01    4.38109955e-01    -1.13898972e+02    
3160000000   4.43734400e-01    1.34247132e+02    8.93618772e-01    -7.99870375e+01    8.93618772e-01    -7.99870375e+01    4.45388037e-01    -1.14331465e+02    
3200000000   4.50894685e-01    1.32424210e+02    8.89976199e-01    -8.11250628e+01    8.89976199e-01    -8.11250628e+01    4.52706147e-01    -1.14771548e+02    
3240000000   4.58105868e-01    1.30594826e+02    8.86229988e-01    -8.22686043e+01    8.86229988e-01    -8.22686043e+01    4.60062979e-01    -1.15219100e+02    
3280000000   4.65367125e-01    1.28758732e+02    8.82377622e-01    -8.34177621e+01    8.82377622e-01    -8.34177621e+01    4.67457476e-01    -1.15673994e+02    
3320000000   4.72677560e-01    1.26915709e+02    8.78416552e-01    -8.45726426e+01    8.78416552e-01    -8.45726426e+01    4.74888853e-01    -1.16136103e+02    
3360000000   4.80036249e-01    1.25065569e+02    8.74344179e-01    -8.57333590e+01    8.74344179e-01    -8.57333590e+01    4.82356615e-01    -1.16605306e+02    
3400000000   4.87442293e-01    1.23208150e+02    8.70157835e-01    -8.69000322e+01    8.70157835e-01    -8.69000322e+01    4.89860565e-01    -1.17081489e+02    
3440000000   4.94894865e-01    1.21343315e+02    8.65854758e-01    -8.80727924e+01    8.65854758e-01    -8.80727924e+01    4.97400813e-01    -1.17564551e+02    
3480000000   5.02393256e-01    1.19470947e+02    8.61432075e-01    -8.92517789e+01    8.61432075e-01    -8.92517789e+01    5.04977776e-01    -1.18054411e+02    
3520000000   5.09936911e-01    1.17590945e+02    8.56886769e-01    -9.04371417e+01    8.56886769e-01    -9.04371417e+01    5.12592163e-01    -1.18551009e+02    
3560000000   5.17525468e-01    1.15703219e+02    8.52215658e-01    -9.16290409e+01    8.52215658e-01    -9.16290409e+01    5.20244968e-01    -1.19054306e+02    
3600000000   5.25158779e-01    1.13807687e+02    8.47415370e-01    -9.28276476e+01    8.47415370e-01    -9.28276476e+01    5.27937443e-01    -1.19564294e+02    
3640000000   5.32836929e-01    1.11904263e+02    8.42482320e-01    -9.40331437e+01    8.42482320e-01    -9.40331437e+01    5.35671075e-01    -1.20080990e+02    
3680000000   5.40560241e-01    1.09992862e+02    8.37412690e-01    -9.52457215e+01    8.37412690e-01    -9.52457215e+01    5.43447549e-01    -1.20604445e+02    
3720000000   5.48329275e-01    1.08073385e+02    8.32202408e-01    -9.64655837e+01    8.32202408e-01    -9.64655837e+01    5.51268710e-01    -1.21134738e+02    
3760000000   5.56144810e-01    1.06145723e+02    8.26847133e-01    -9.76929426e+01    8.26847133e-01    -9.76929426e+01    5.59136525e-01    -1.21671980e+02    
3800000000   5.64007822e-01    1.04209746e+02    8.21342247e-01    -9.89280197e+01    8.21342247e-01    -9.89280197e+01    5.67053025e-01    -1.22216316e+02    
3840000000   5.71919449e-01    1.02265304e+02    8.15682841e-01    -1.00171045e+02    8.15682841e-01    -1.00171045e+02    5.75020265e-01    -1.22767920e+02    
3880000000   5.79880949e-01    1.00312224e+02    8.09863716e-01    -1.01422254e+02    8.09863716e-01    -1.01422255e+02    5.83040265e-01    -1.23326994e+02    
3920000000   5.87893653e-01    9.83503089e+01    8.03879379e-01    -1.02681893e+02    8.03879379e-01    -1.02681893e+02    5.91114956e-01    -1.23893772e+02    
3960000000   5.95958904e-01    9.63793324e+01    7.97724043e-01    -1.03950211e+02    7.97724043e-01    -1.03950211e+02    5.99246124e-01    -1.24468512e+02    
4000000000   6.04078005e-01    9.43990441e+01    7.91391639e-01    -1.05227462e+02    7.91391639e-01    -1.05227462e+02    6.07435355e-01    -1.25051497e+02    
4040000000   6.12252148e-01    9.24091672e+01    7.84875815e-01    -1.06513904e+02    7.84875815e-01    -1.06513904e+02    6.15683978e-01    -1.25643033e+02    
4080000000   6.20482358e-01    9.04094006e+01    7.78169951e-01    -1.07809800e+02    7.78169951e-01    -1.07809800e+02    6.23993015e-01    -1.26243444e+02    
4120000000   6.28769423e-01    8.83994204e+01    7.71267167e-01    -1.09115412e+02    7.71267167e-01    -1.09115412e+02    6.32363121e-01    -1.26853072e+02    
4160000000   6.37113832e-01    8.63788827e+01    7.64160336e-01    -1.10431006e+02    7.64160336e-01    -1.10431006e+02    6.40794544e-01    -1.27472271e+02    
4200000000   6.45515716e-01    8.43474261e+01    7.56842097e-01    -1.11756847e+02    7.56842097e-01    -1.11756847e+02    6.49287069e-01    -1.28101407e+02    
4240000000   6.53974787e-01    8.23046748e+01    7.49304863e-01    -1.13093199e+02    7.49304863e-01    -1.13093199e+02    6.57839981e-01    -1.28740853e+02    
4280000000   6.62490287e-01    8.02502424e+01    7.41540842e-01    -1.14440323e+02    7.41540842e-01    -1.14440323e+02    6.66452023e-01    -1.29390988e+02    
4320000000   6.71060934e-01    7.81837348e+01    7.33542047e-01    -1.15798478e+02    7.33542047e-01    -1.15798478e+02    6.75121359e-01    -1.30052191e+02    
4360000000   6.79684877e-01    7.61047545e+01    7.25300311e-01    -1.17167917e+02    7.25300311e-01    -1.17167917e+02    6.83845546e-01    -1.30724840e+02    
4400000000   6.88359658e-01    7.40129040e+01    7.16807308e-01    -1.18548885e+02    7.16807308e-01    -1.18548885e+02    6.92621499e-01    -1.31409309e+02    
4440000000   6.97082173e-01    7.19077893e+01    7.08054566e-01    -1.19941619e+02    7.08054566e-01    -1.19941619e+02    7.01445476e-01    -1.32105965e+02    
4480000000   7.05848644e-01    6.97890240e+01    6.99033494e-01    -1.21346342e+02    6.99033494e-01    -1.21346342e+02    7.10313054e-01    -1.32815164e+02    
4520000000   7.14654593e-01    6.76562322e+01    6.89735407e-01    -1.22763262e+02    6.89735407e-01    -1.22763262e+02    7.19219115e-01    -1.33537251e+02    
4560000000   7.23494820e-01    6.55090521e+01    6.80151553e-01    -1.24192571e+02    6.80151553e-01    -1.24192571e+02    7.28157834e-01    -1.34272555e+02    
4600000000   7.32363392e-01    6.33471392e+01    6.70273153e-01    -1.25634435e+02    6.70273153e-01    -1.25634435e+02    7.37122676e-01    -1.35021386e+02    
4640000000   7.41253631e-01    6.11701690e+01    6.60091445e-01    -1.27088993e+02    6.60091445e-01    -1.27088993e+02    7.46106389e-01    -1.35784039e+02    
4680000000   7.50158107e-01    5.89778399e+01    6.49597729e-01    -1.28556353e+02    6.49597729e-01    -1.28556353e+02    7.55101010e-01    -1.36560782e+02    
4720000000   7.59068640e-01    5.67698756e+01    6.38783426e-01    -1.30036585e+02    6.38783426e-01    -1.30036585e+02    7.64097866e-01    -1.37351863e+02    
4760000000   7.67976300e-01    5.45460272e+01    6.27640147e-01    -1.31529715e+02    6.27640147e-01    -1.31529715e+02    7.73087587e-01    -1.38157504e+02    
4800000000   7.76871414e-01    5.23060752e+01    6.16159764e-01    -1.33035719e+02    6.16159764e-01    -1.33035719e+02    7.82060118e-01    -1.38977900e+02    
4840000000   7.85743574e-01    5.00498320e+01    6.04334494e-01    -1.34554516e+02    6.04334494e-01    -1.34554516e+02    7.91004735e-01    -1.39813217e+02    
4880000000   7.94581651e-01    4.77771427e+01    5.92156990e-01    -1.36085958e+02    5.92156990e-01    -1.36085958e+02    7.99910070e-01    -1.40663593e+02    
4920000000   8.03373808e-01    4.54878879e+01    5.79620435e-01    -1.37629829e+02    5.79620435e-01    -1.37629829e+02    8.08764133e-01    -1.41529133e+02    
4960000000   8.12107520e-01    4.31819848e+01    5.66718651e-01    -1.39185828e+02    5.66718651e-01    -1.39185828e+02    8.17554340e-01    -1.42409912e+02    
5000000000   8.20769603e-01    4.08593891e+01    5.53446203e-01    -1.40753565e+02    5.53446203e-01    -1.40753565e+02    8.26267547e-01    -1.43305974e+02    
5040000000   8.29346241e-01    3.85200969e+01    5.39798512e-01    -1.42332553e+02    5.39798512e-01    -1.42332553e+02    8.34890081e-01    -1.44217326e+02    
5080000000   8.37823028e-01    3.61641464e+01    5.25771960e-01    -1.43922192e+02    5.25771960e-01    -1.43922192e+02    8.43407780e-01    -1.45143946e+02    
5120000000   8.46185015e-01    3.37916194e+01    5.11364002e-01    -1.45521767e+02    5.11364002e-01    -1.45521767e+02    8.51806029e-01    -1.46085774e+02    
5160000000   8.54416765e-01    3.14026426e+01    4.96573255e-01    -1.47130425e+02    4.96573255e-01    -1.47130425e+02    8.60069810e-01    -1.47042716e+02    
5200000000   8.62502419e-01    2.89973894e+01    4.81399592e-01    -1.48747172e+02    4.81399592e-01    -1.48747172e+02    8.68183745e-01    -1.48014644e+02    
5240000000   8.70425769e-01    2.65760801e+01    4.65844209e-01    -1.50370848e+02    4.65844209e-01    -1.50370848e+02    8.76132149e-01    -1.49001393e+02    
5280000000   8.78170345e-01    2.41389834e+01    4.49909683e-01    -1.52000115e+02    4.49909683e-01    -1.52000115e+02    8.83899094e-01    -1.50002762e+02    
5320000000   8.85719503e-01    2.16864156e+01    4.33600010e-01    -1.53633423e+02    4.33600010e-01    -1.53633423e+02    8.91468471e-01    -1.51018512e+02    
5360000000   8.93056530e-01    1.92187414e+01    4.16920619e-01    -1.55268984e+02    4.16920619e-01    -1.55268984e+02    8.98824060e-01    -1.52048367e+02    
5400000000   9.00164748e-01    1.67363720e+01    3.99878366e-01    -1.56904725e+02    3.99878366e-01    -1.56904725e+02    9.05949613e-01    -1.53092014e+02    
5440000000   9.07027628e-01    1.42397645e+01    3.82481518e-01    -1.58538230e+02    3.82481518e-01    -1.58538230e+02    9.12828936e-01    -1.54149102e+02    
5480000000   9.12576931e-01    1.18881247e+01    3.66806025e-01    -1.59935376e+02    3.66806025e-01    -1.59935376e+02    9.18425114e-01    -1.55058191e+02    
5520000000   9.18968840e-01    9.35872145e+00    3.48710744e-01    -1.61565148e+02    3.48710744e-01    -1.61565148e+02    9.24837500e-01    -1.56148507e+02    
5560000000   9.25068679e-01    6.81549152e+00    3.30274615e-01    -1.63182885e+02    3.30274615e-01    -1.63182885e+02    9.30956485e-01    -1.57252004e+02    
5600000000   9.30860372e-01    4.25915485e+00    3.11512169e-01    -1.64783384e+02    3.11512169e-01    -1.64783384e+02    9.36765837e-01    -1.58368054e+02    
5640000000   9.36328715e-01    1.69047364e+00    2.92439400e-01    -1.66360205e+02    2.92439400e-01    -1.66360205e+02    9.42250077e-01    -1.59495991e+02    
5680000000   9.41459492e-01    -8.89756435e-01    2.73073677e-01    -1.67905212e+02    2.73073677e-01    -1.67905212e+02    9.47394615e-01    -1.60635115e+02    
5720000000   9.46239571e-01    -3.48071520e+00    2.53433709e-01    -1.69407873e+02    2.53433709e-01    -1.69407873e+02    9.52185853e-01    -1.61784700e+02    
5760000000   9.50656963e-01    -6.08156709e+00    2.33539577e-01    -1.70854175e+02    2.33539577e-01    -1.70854175e+02    9.56611283e-01    -1.62944003e+02    
5800000000   9.54700867e-01    -8.69146996e+00    2.13412901e-01    -1.72224901e+02    2.13412901e-01    -1.72224901e+02    9.60659549e-01    -1.64112268e+02    
5840000000   9.58361667e-01    -1.13095835e+01    1.93077231e-01    -1.73492780e+02    1.93077231e-01    -1.73492780e+02    9.64320492e-01    -1.65288742e+02    
5880000000   9.61630922e-01    -1.39350766e+01    1.72558842e-01    -1.74617556e+02    1.72558842e-01    -1.74617556e+02    9.67585168e-01    -1.66472670e+02    
