! Multiline TRL de-embedded results 
! Powered by MTRL v0.1 based on Matlab. Written by Simon.
! 29-Mar-2016 20:37:55
# hz S ma R 50
1000000000   1.20454719e-01    -1.10013496e+02    9.91178188e-01    -2.06512232e+01    9.91178188e-01    -2.06512232e+01    1.20469172e-01    -1.11976998e+02    
1040000000   1.25311896e-01    -1.11160387e+02    9.90522016e-01    -2.14765243e+01    9.90522016e-01    -2.14765243e+01    1.25634611e-01    -1.12642311e+02    
1080000000   1.30126792e-01    -1.12297138e+02    9.89835381e-01    -2.23027552e+01    9.89835381e-01    -2.23027552e+01    1.30846414e-01    -1.13317629e+02    
1120000000   1.34856376e-01    -1.13435083e+02    9.89118040e-01    -2.31295801e+01    9.89118040e-01    -2.31295801e+01    1.36110074e-01    -1.14000756e+02    
1160000000   1.39406201e-01    -1.14594870e+02    9.88370463e-01    -2.39562341e+01    9.88370463e-01    -2.39562341e+01    1.41437773e-01    -1.14687862e+02    
1200000000   1.43526902e-01    -1.15821382e+02    9.87596670e-01    -2.47806930e+01    9.87596670e-01    -2.47806930e+01    1.46862556e-01    -1.15370790e+02    
1240000000   1.46305429e-01    -1.17232867e+02    9.86826072e-01    -2.55958623e+01    9.86826072e-01    -2.55958623e+01    1.52509601e-01    -1.16027384e+02    
1280000000   1.40771839e-01    -1.18776266e+02    9.86577884e-01    -2.63572214e+01    9.86577884e-01    -2.63572214e+01    1.59399291e-01    -1.16624615e+02    
1320000000   1.71227274e-01    -1.10598500e+02    9.86905256e-01    -2.74556606e+01    9.86905256e-01    -2.74556606e+01    1.61893867e-01    -1.18868498e+02    
1360000000   1.72991853e-01    -1.16778375e+02    9.84489732e-01    -2.82197797e+01    9.84489732e-01    -2.82197797e+01    1.67344376e-01    -1.18831741e+02    
1400000000   1.76475411e-01    -1.18600755e+02    9.83379662e-01    -2.90413292e+01    9.83379662e-01    -2.90413292e+01    1.72997025e-01    -1.19455616e+02    
1440000000   1.80966085e-01    -1.19869210e+02    9.82345807e-01    -2.98771433e+01    9.82345808e-01    -2.98771433e+01    1.78584086e-01    -1.20174998e+02    
1480000000   1.85867787e-01    -1.20962528e+02    9.81303968e-01    -3.07193711e+01    9.81303968e-01    -3.07193711e+01    1.84159391e-01    -1.20929298e+02    
1520000000   1.90989723e-01    -1.21976138e+02    9.80235977e-01    -3.15658291e+01    9.80235977e-01    -3.15658291e+01    1.89741897e-01    -1.21703021e+02    
1560000000   1.96254253e-01    -1.22945659e+02    9.79135427e-01    -3.24157140e+01    9.79135427e-01    -3.24157140e+01    1.95338798e-01    -1.22490335e+02    
1600000000   2.01624115e-01    -1.23887845e+02    9.77999228e-01    -3.32686898e+01    9.77999228e-01    -3.32686898e+01    2.00952671e-01    -1.23288488e+02    
1640000000   2.07079077e-01    -1.24811956e+02    9.76825514e-01    -3.41246158e+01    9.76825514e-01    -3.41246158e+01    2.06583871e-01    -1.24095961e+02    
1680000000   2.12606894e-01    -1.25723761e+02    9.75612977e-01    -3.49834471e+01    9.75612977e-01    -3.49834471e+01    2.12231359e-01    -1.24911812e+02    
1720000000   2.18199262e-01    -1.26627200e+02    9.74360608e-01    -3.58451978e+01    9.74360608e-01    -3.58451978e+01    2.17892849e-01    -1.25735390e+02    
1760000000   2.23849774e-01    -1.27525143e+02    9.73067563e-01    -3.67099320e+01    9.73067563e-01    -3.67099320e+01    2.23564428e-01    -1.26566163e+02    
1800000000   2.29552687e-01    -1.28419758e+02    9.71732973e-01    -3.75777814e+01    9.71732973e-01    -3.75777814e+01    2.29239408e-01    -1.27403509e+02    
1840000000   2.35301924e-01    -1.29312644e+02    9.70355277e-01    -3.84489997e+01    9.70355277e-01    -3.84489997e+01    2.34905720e-01    -1.28246146e+02    
1880000000   2.41089917e-01    -1.30204659e+02    9.68929450e-01    -3.93240818e+01    9.68929450e-01    -3.93240818e+01    2.40541178e-01    -1.29090103e+02    
1920000000   2.46907358e-01    -1.31094837e+02    9.67435289e-01    -4.02038021e+01    9.67435289e-01    -4.02038021e+01    2.46116405e-01    -1.29921094e+02    
1960000000   2.52759553e-01    -1.31977992e+02    9.65809726e-01    -4.10870530e+01    9.65809726e-01    -4.10870530e+01    2.51711488e-01    -1.30700809e+02    
2000000000   2.58709083e-01    -1.32857392e+02    9.64068865e-01    -4.19647920e+01    9.64068865e-01    -4.19647920e+01    2.57760050e-01    -1.31457392e+02    
2040000000   2.64724479e-01    -1.33753712e+02    9.62424007e-01    -4.28402860e+01    9.62424007e-01    -4.28402860e+01    2.64015040e-01    -1.32320526e+02    
2080000000   2.70734233e-01    -1.34658912e+02    9.60802268e-01    -4.37228603e+01    9.60802268e-01    -4.37228603e+01    2.70054891e-01    -1.33225025e+02    
2120000000   2.76747589e-01    -1.35565816e+02    9.59128053e-01    -4.46109702e+01    9.59128053e-01    -4.46109702e+01    2.75987632e-01    -1.34125588e+02    
2160000000   2.82773699e-01    -1.36473785e+02    9.57393759e-01    -4.55029875e+01    9.57393759e-01    -4.55029875e+01    2.81896999e-01    -1.35020664e+02    
2200000000   2.88814456e-01    -1.37382990e+02    9.55602447e-01    -4.63983108e+01    9.55602447e-01    -4.63983108e+01    2.87812916e-01    -1.35913523e+02    
2240000000   2.94869466e-01    -1.38293442e+02    9.53756794e-01    -4.72967349e+01    9.53756794e-01    -4.72967349e+01    2.93746760e-01    -1.36806452e+02    
2280000000   3.00938037e-01    -1.39204979e+02    9.51858393e-01    -4.81981958e+01    9.51858393e-01    -4.81981958e+01    2.99704002e-01    -1.37700822e+02    
2320000000   3.07019855e-01    -1.40117348e+02    9.49908086e-01    -4.91026878e+01    9.49908086e-01    -4.91026878e+01    3.05688152e-01    -1.38597491e+02    
2360000000   3.13115234e-01    -1.41030261e+02    9.47906225e-01    -5.00102334e+01    9.47906225e-01    -5.00102334e+01    3.11702059e-01    -1.39497047e+02    
2400000000   3.19225192e-01    -1.41943441e+02    9.45852813e-01    -5.09208727e+01    9.45852813e-01    -5.09208727e+01    3.17748363e-01    -1.40399933e+02    
2440000000   3.25351438e-01    -1.42856650e+02    9.43747562e-01    -5.18346587e+01    9.43747562e-01    -5.18346587e+01    3.23829656e-01    -1.41306523e+02    
2480000000   3.31496329e-01    -1.43769713e+02    9.41589923e-01    -5.27516553e+01    9.41589923e-01    -5.27516553e+01    3.29948531e-01    -1.42217152e+02    
2520000000   3.37662772e-01    -1.44682531e+02    9.39379081e-01    -5.36719357e+01    9.39379081e-01    -5.36719357e+01    3.36107577e-01    -1.43132134e+02    
2560000000   3.43854124e-01    -1.45595089e+02    9.37113954e-01    -5.45955815e+01    9.37113954e-01    -5.45955815e+01    3.42309372e-01    -1.44051775e+02    
2600000000   3.50074070e-01    -1.46507457e+02    9.34793179e-01    -5.55226814e+01    9.34793179e-01    -5.55226814e+01    3.48556456e-01    -1.44976371e+02    
2640000000   3.56326498e-01    -1.47419785e+02    9.32415107e-01    -5.64533302e+01    9.32415107e-01    -5.64533302e+01    3.54851307e-01    -1.45906214e+02    
2680000000   3.62615386e-01    -1.48332297e+02    9.29977796e-01    -5.73876280e+01    9.29977796e-01    -5.73876280e+01    3.61196319e-01    -1.46841586e+02    
2720000000   3.68944692e-01    -1.49245279e+02    9.27479012e-01    -5.83256786e+01    9.27479012e-01    -5.83256786e+01    3.67593777e-01    -1.47782761e+02    
2760000000   3.76569536e-01    -1.49849352e+02    9.25218356e-01    -5.91847384e+01    9.25218356e-01    -5.91847384e+01    3.73394224e-01    -1.48903809e+02    
2800000000   3.83203954e-01    -1.50781464e+02    9.22480749e-01    -6.01314371e+01    9.22480749e-01    -6.01314371e+01    3.80249609e-01    -1.49829095e+02    
2840000000   3.89878909e-01    -1.51714794e+02    9.19664311e-01    -6.10827420e+01    9.19664311e-01    -6.10827420e+01    3.87170533e-01    -1.50763498e+02    
2880000000   3.96597251e-01    -1.52649666e+02    9.16766664e-01    -6.20387498e+01    9.16766664e-01    -6.20387498e+01    3.94153494e-01    -1.51707256e+02    
2920000000   4.03361687e-01    -1.53586456e+02    9.13785382e-01    -6.29995551e+01    9.13785382e-01    -6.29995551e+01    4.01194859e-01    -1.52660518e+02    
2960000000   4.10174723e-01    -1.54525581e+02    9.10717998e-01    -6.39652505e+01    9.10717998e-01    -6.39652505e+01    4.08290918e-01    -1.53623347e+02    
3000000000   4.17038626e-01    -1.55467488e+02    9.07562023e-01    -6.49359269e+01    9.07562023e-01    -6.49359269e+01    4.15437946e-01    -1.54595728e+02    
3040000000   4.23955382e-01    -1.56412648e+02    9.04314950e-01    -6.59116741e+01    9.04314950e-01    -6.59116741e+01    4.22632267e-01    -1.55577576e+02    
3080000000   4.30926674e-01    -1.57361544e+02    9.00974268e-01    -6.68925810e+01    9.00974268e-01    -6.68925810e+01    4.29870326e-01    -1.56568748e+02    
3120000000   4.37953854e-01    -1.58314665e+02    8.97537462e-01    -6.78787371e+01    8.97537462e-01    -6.78787371e+01    4.37148758e-01    -1.57569045e+02    
3160000000   4.45037939e-01    -1.59272495e+02    8.94002015e-01    -6.88702327e+01    8.94002015e-01    -6.88702327e+01    4.44464459e-01    -1.58578229e+02    
3200000000   4.52179602e-01    -1.60235506e+02    8.90365408e-01    -6.98671607e+01    8.90365408e-01    -6.98671607e+01    4.51814653e-01    -1.59596028e+02    
3240000000   4.59379186e-01    -1.61204153e+02    8.86625111e-01    -7.08696172e+01    8.86625111e-01    -7.08696172e+01    4.59196954e-01    -1.60622146e+02    
3280000000   4.66636716e-01    -1.62178867e+02    8.82778576e-01    -7.18777028e+01    8.82778576e-01    -7.18777028e+01    4.66609419e-01    -1.61656276e+02    
3320000000   4.73951924e-01    -1.63160050e+02    8.78823221e-01    -7.28915238e+01    8.78823221e-01    -7.28915238e+01    4.74050595e-01    -1.62698107e+02    
3360000000   4.81324288e-01    -1.64148070e+02    8.74756417e-01    -7.39111932e+01    8.74756417e-01    -7.39111932e+01    4.81519548e-01    -1.63747336e+02    
3400000000   4.88753069e-01    -1.65143260e+02    8.70575464e-01    -7.49368319e+01    8.70575464e-01    -7.49368319e+01    4.89015885e-01    -1.64803678e+02    
3440000000   4.96237358e-01    -1.66145918e+02    8.66277573e-01    -7.59685694e+01    8.66277573e-01    -7.59685694e+01    4.96539759e-01    -1.65866872e+02    
3480000000   5.03776133e-01    -1.67156303e+02    8.61859841e-01    -7.70065445e+01    8.61859841e-01    -7.70065445e+01    5.04091866e-01    -1.66936693e+02    
3520000000   5.11368307e-01    -1.68174640e+02    8.57319224e-01    -7.80509063e+01    8.57319224e-01    -7.80509063e+01    5.11673416e-01    -1.68012953e+02    
3560000000   5.19012786e-01    -1.69201120e+02    8.52652518e-01    -7.91018141e+01    8.52652518e-01    -7.91018141e+01    5.19286101e-01    -1.69095514e+02    
3600000000   5.26708518e-01    -1.70235904e+02    8.47856330e-01    -8.01594378e+01    8.47856330e-01    -8.01594378e+01    5.26932049e-01    -1.70184283e+02    
3640000000   5.34454544e-01    -1.71279130e+02    8.42927056e-01    -8.12239582e+01    8.42927056e-01    -8.12239582e+01    5.34613762e-01    -1.71279227e+02    
3680000000   5.42250038e-01    -1.72330912e+02    8.37860859e-01    -8.22955664e+01    8.37860859e-01    -8.22955664e+01    5.42334050e-01    -1.72380361e+02    
3720000000   5.50094339e-01    -1.73391352e+02    8.32653656e-01    -8.33744636e+01    8.32653656e-01    -8.33744636e+01    5.50095954e-01    -1.73487760e+02    
3760000000   5.57986977e-01    -1.74460543e+02    8.27301093e-01    -8.44608609e+01    8.27301093e-01    -8.44608609e+01    5.57902664e-01    -1.74601551e+02    
3800000000   5.65927683e-01    -1.75538574e+02    8.21798544e-01    -8.55549783e+01    8.21798544e-01    -8.55549783e+01    5.65757437e-01    -1.75721914e+02    
3840000000   5.73916391e-01    -1.76625540e+02    8.16141094e-01    -8.66570442e+01    8.16141094e-01    -8.66570442e+01    5.73663510e-01    -1.76849075e+02    
3880000000   5.81953231e-01    -1.77721541e+02    8.10323538e-01    -8.77672943e+01    8.10323538e-01    -8.77672943e+01    5.81624015e-01    -1.77983308e+02    
3920000000   5.90038507e-01    -1.78826693e+02    8.04340379e-01    -8.88859714e+01    8.04340379e-01    -8.88859714e+01    5.89641891e-01    -1.79124926e+02    
3960000000   5.98172664e-01    -1.79941129e+02    7.98185832e-01    -9.00133237e+01    7.98185832e-01    -9.00133237e+01    5.97719811e-01    1.79725724e+02    
4000000000   6.06356253e-01    1.78934997e+02    7.91853826e-01    -9.11496046e+01    7.91853826e-01    -9.11496046e+01    6.05860099e-01    1.78568264e+02    
4040000000   6.14589878e-01    1.77801507e+02    7.85338009e-01    -9.22950714e+01    7.85338009e-01    -9.22950714e+01    6.14064664e-01    1.77402292e+02    
4080000000   6.22874150e-01    1.76658197e+02    7.78631765e-01    -9.34499844e+01    7.78631765e-01    -9.34499844e+01    6.22334933e-01    1.76227390e+02    
4120000000   6.31209619e-01    1.75504835e+02    7.71728214e-01    -9.46146064e+01    7.71728214e-01    -9.46146064e+01    6.30671795e-01    1.75043125e+02    
4160000000   6.39596720e-01    1.74341162e+02    7.64620235e-01    -9.57892010e+01    7.64620235e-01    -9.57892010e+01    6.39075547e-01    1.73849060e+02    
4200000000   6.48035702e-01    1.73166895e+02    7.57300466e-01    -9.69740325e+01    7.57300466e-01    -9.69740325e+01    6.47545857e-01    1.72644754e+02    
4240000000   6.56526564e-01    1.71981720e+02    7.49761329e-01    -9.81693638e+01    7.49761329e-01    -9.81693638e+01    6.56081721e-01    1.71429771e+02    
4280000000   6.65068990e-01    1.70785304e+02    7.41995033e-01    -9.93754559e+01    7.41995033e-01    -9.93754559e+01    6.64681441e-01    1.70203684e+02    
4320000000   6.73662278e-01    1.69577290e+02    7.33993598e-01    -1.00592566e+02    7.33993598e-01    -1.00592566e+02    6.73342603e-01    1.68966078e+02    
4360000000   6.82305281e-01    1.68357302e+02    7.25748861e-01    -1.01820947e+02    7.25748861e-01    -1.01820947e+02    6.82062063e-01    1.67716553e+02    
4400000000   6.90996337e-01    1.67124947e+02    7.17252500e-01    -1.03060842e+02    7.17252500e-01    -1.03060842e+02    6.90835943e-01    1.66454733e+02    
4440000000   6.99733213e-01    1.65879824e+02    7.08496051e-01    -1.04312489e+02    7.08496051e-01    -1.04312489e+02    6.99659635e-01    1.65180260e+02    
4480000000   7.08513044e-01    1.64621518e+02    6.99470929e-01    -1.05576109e+02    6.99470929e-01    -1.05576109e+02    7.08527805e-01    1.63892807e+02    
4520000000   7.17332279e-01    1.63349615e+02    6.90168452e-01    -1.06851911e+02    6.90168452e-01    -1.06851911e+02    7.17434411e-01    1.62592069e+02    
4560000000   7.26186630e-01    1.62063698e+02    6.80579878e-01    -1.08140084e+02    6.80579878e-01    -1.08140084e+02    7.26372719e-01    1.61277774e+02    
4600000000   7.35071030e-01    1.60763356e+02    6.70696432e-01    -1.09440795e+02    6.70696432e-01    -1.09440795e+02    7.35335332e-01    1.59949676e+02    
4640000000   7.43979587e-01    1.59448186e+02    6.60509355e-01    -1.10754184e+02    6.60509355e-01    -1.10754184e+02    7.44314210e-01    1.58607562e+02    
4680000000   7.52905557e-01    1.58117801e+02    6.50009952e-01    -1.12080358e+02    6.50009952e-01    -1.12080358e+02    7.53300704e-01    1.57251246e+02    
4720000000   7.61841311e-01    1.56771833e+02    6.39189649e-01    -1.13419387e+02    6.39189649e-01    -1.13419387e+02    7.62285583e-01    1.55880576e+02    
4760000000   7.70778323e-01    1.55409936e+02    6.28040056e-01    -1.14771297e+02    6.28040056e-01    -1.14771297e+02    7.71259068e-01    1.54495425e+02    
4800000000   7.79707154e-01    1.54031793e+02    6.16553048e-01    -1.16136063e+02    6.16553048e-01    -1.16136063e+02    7.80210856e-01    1.53095695e+02    
4840000000   7.88617456e-01    1.52637121e+02    6.04720839e-01    -1.17513605e+02    6.04720839e-01    -1.17513605e+02    7.89130150e-01    1.51681316e+02    
4880000000   7.97497979e-01    1.51225673e+02    5.92536079e-01    -1.18903776e+02    5.92536079e-01    -1.18903776e+02    7.98005683e-01    1.50252242e+02    
4920000000   8.06336588e-01    1.49797243e+02    5.79991953e-01    -1.20306358e+02    5.79991953e-01    -1.20306358e+02    8.06825737e-01    1.48808454e+02    
4960000000   8.15120298e-01    1.48351672e+02    5.67082278e-01    -1.21721051e+02    5.67082278e-01    -1.21721051e+02    8.15578167e-01    1.47349953e+02    
5000000000   8.23835312e-01    1.46888848e+02    5.53801618e-01    -1.23147466e+02    5.53801618e-01    -1.23147466e+02    8.24250411e-01    1.45876766e+02    
5040000000   8.32467073e-01    1.45408708e+02    5.40145393e-01    -1.24585113e+02    5.40145393e-01    -1.24585113e+02    8.32829508e-01    1.44388941e+02    
5080000000   8.41000331e-01    1.43911248e+02    5.26109987e-01    -1.26033395e+02    5.26109987e-01    -1.26033395e+02    8.41302109e-01    1.42886547e+02    
5120000000   8.49419215e-01    1.42396516e+02    5.11692852e-01    -1.27491593e+02    5.11692852e-01    -1.27491593e+02    8.49654487e-01    1.41369677e+02    
5160000000   8.57707321e-01    1.40864618e+02    4.96892611e-01    -1.28958857e+02    4.96892611e-01    -1.28958857e+02    8.57872557e-01    1.39838445e+02    
5200000000   8.65847806e-01    1.39315719e+02    4.81709140e-01    -1.30434190e+02    4.81709140e-01    -1.30434190e+02    8.65941888e-01    1.38292990e+02    
5240000000   8.73823499e-01    1.37750042e+02    4.66143639e-01    -1.31916433e+02    4.66143639e-01    -1.31916433e+02    8.73847727e-01    1.36733474e+02    
5280000000   8.81617008e-01    1.36167869e+02    4.50198695e-01    -1.33404246e+02    4.50198695e-01    -1.33404246e+02    8.81575028e-01    1.35160089e+02    
5320000000   8.89210844e-01    1.34569538e+02    4.33878311e-01    -1.34896080e+02    4.33878311e-01    -1.34896080e+02    8.89108492e-01    1.33573052e+02    
5360000000   8.96587547e-01    1.32955441e+02    4.17187924e-01    -1.36390146e+02    4.17187924e-01    -1.36390146e+02    8.96432613e-01    1.31972611e+02    
5400000000   9.03729808e-01    1.31326024e+02    4.00134406e-01    -1.37884369e+02    4.00134406e-01    -1.37884369e+02    9.03531737e-01    1.30359047e+02    
5440000000   9.10620600e-01    1.29681782e+02    3.82726033e-01    -1.39376333e+02    3.82726033e-01    -1.39376333e+02    9.10390136e-01    1.28732675e+02    
5480000000   9.16124147e-01    1.28024719e+02    3.67040250e-01    -1.40631913e+02    3.67040250e-01    -1.40631913e+02    9.16037746e-01    1.27412141e+02    
5520000000   9.22520357e-01    1.26346476e+02    3.48932956e-01    -1.42120099e+02    3.48932956e-01    -1.42120099e+02    9.22451580e-01    1.25753835e+02    
5560000000   9.28620279e-01    1.24654146e+02    3.30484589e-01    -1.43596227e+02    3.30484589e-01    -1.43596227e+02    9.28575520e-01    1.24082659e+02    
5600000000   9.34407774e-01    1.22948446e+02    3.11709702e-01    -1.45055088e+02    3.11709702e-01    -1.45055088e+02    9.34393372e-01    1.22399245e+02    
5640000000   9.39867613e-01    1.21230137e+02    2.92624309e-01    -1.46490245e+02    2.92624309e-01    -1.46490245e+02    9.39889667e-01    1.20704265e+02    
5680000000   9.44985596e-01    1.19500012e+02    2.73245803e-01    -1.47893560e+02    2.73245803e-01    -1.47893560e+02    9.45049782e-01    1.18998421e+02    
5720000000   9.49748650e-01    1.17758892e+02    2.53592917e-01    -1.49254498e+02    2.53592917e-01    -1.49254498e+02    9.49860055e-01    1.17282442e+02    
5760000000   9.54144896e-01    1.16007610e+02    2.33685756e-01    -1.50559046e+02    2.33685756e-01    -1.50559046e+02    9.54307865e-01    1.15557077e+02    
5800000000   9.58163688e-01    1.14247010e+02    2.13545965e-01    -1.51787986e+02    2.13545965e-01    -1.51787986e+02    9.58381703e-01    1.13823080e+02    
5840000000   9.61795626e-01    1.12477932e+02    1.93197123e-01    -1.52914046e+02    1.93197123e-01    -1.52914046e+02    9.62071212e-01    1.12081212e+02    
5880000000   9.65032530e-01    1.10701208e+02    1.72665533e-01    -1.53896967e+02    1.72665533e-01    -1.53896967e+02    9.65367205e-01    1.10332223e+02    
