! Multiline TRL de-embedded results 
! Powered by MTRL v0.1 based on Matlab. Written by Simon.
! 29-Mar-2016 20:36:43
# hz S ma R 50
1000000000   1.20258108e-01    -1.31118807e+02    9.90908363e-01    -2.41687751e+01    9.90908363e-01    -2.41687751e+01    1.20600441e-01    -9.79067908e+01    
1040000000   1.25102264e-01    -1.33105658e+02    9.90245653e-01    -2.51340695e+01    9.90245653e-01    -2.51340695e+01    1.25774921e-01    -9.80121304e+01    
1080000000   1.29904254e-01    -1.35082448e+02    9.89553050e-01    -2.61003069e+01    9.89553050e-01    -2.61003069e+01    1.30995805e-01    -9.81274226e+01    
1120000000   1.34621178e-01    -1.37060540e+02    9.88830316e-01    -2.70671563e+01    9.88830317e-01    -2.70671563e+01    1.36268561e-01    -9.82504514e+01    
1160000000   1.39158801e-01    -1.39060622e+02    9.88077908e-01    -2.80338595e+01    9.88077908e-01    -2.80338595e+01    1.41605358e-01    -9.83773604e+01    
1200000000   1.43268228e-01    -1.41127654e+02    9.87299794e-01    -2.89984050e+01    9.87299794e-01    -2.89984050e+01    1.47039279e-01    -9.84999421e+01    
1240000000   1.46037949e-01    -1.43380099e+02    9.86525151e-01    -2.99537343e+01    9.86525151e-01    -2.99537343e+01    1.52695767e-01    -9.85958953e+01    
1280000000   1.40508540e-01    -1.45766090e+02    9.86270095e-01    -3.08555254e+01    9.86270095e-01    -3.08555254e+01    1.59598361e-01    -9.86313987e+01    
1320000000   1.70900641e-01    -1.38421346e+02    9.86591236e-01    -3.20928016e+01    9.86591236e-01    -3.20928016e+01    1.62100080e-01    -1.00319934e+02    
1360000000   1.72666176e-01    -1.45444581e+02    9.84180587e-01    -3.29974808e+01    9.84180587e-01    -3.29974808e+01    1.67554736e-01    -9.97209367e+01    
1400000000   1.76141768e-01    -1.48108663e+02    9.83069556e-01    -3.39593139e+01    9.83069556e-01    -3.39593139e+01    1.73215414e-01    -9.97836773e+01    
1440000000   1.80622523e-01    -1.50218647e+02    9.82034733e-01    -3.49353827e+01    9.82034733e-01    -3.49353827e+01    1.78810470e-01    -9.99420407e+01    
1480000000   1.85513800e-01    -1.52153572e+02    9.80992237e-01    -3.59178785e+01    9.80992237e-01    -3.59178785e+01    1.84393585e-01    -1.00135268e+02    
1520000000   1.90625224e-01    -1.54008948e+02    9.79923937e-01    -3.69046308e+01    9.79923937e-01    -3.69046308e+01    1.89983694e-01    -1.00347814e+02    
1560000000   1.95879315e-01    -1.55820427e+02    9.78823410e-01    -3.78948421e+01    9.78823410e-01    -3.78948421e+01    1.95587987e-01    -1.00573823e+02    
1600000000   2.01238879e-01    -1.57604784e+02    9.77687541e-01    -3.88881796e+01    9.77687541e-01    -3.88881796e+01    2.01209048e-01    -1.00810529e+02    
1640000000   2.06683711e-01    -1.59371289e+02    9.76514432e-01    -3.98845046e+01    9.76514432e-01    -3.98845046e+01    2.06847237e-01    -1.01056406e+02    
1680000000   2.12201570e-01    -1.61125723e+02    9.75302739e-01    -4.08837741e+01    9.75302739e-01    -4.08837741e+01    2.12501526e-01    -1.01310504e+02    
1720000000   2.17784144e-01    -1.62872032e+02    9.74051414e-01    -4.18860030e+01    9.74051414e-01    -4.18860030e+01    2.18169645e-01    -1.01572169e+02    
1760000000   2.23425002e-01    -1.64613091e+02    9.72759575e-01    -4.28912566e+01    9.72759575e-01    -4.28912566e+01    2.23847697e-01    -1.01840865e+02    
1800000000   2.29118373e-01    -1.66351072e+02    9.71426311e-01    -4.38996670e+01    9.71426311e-01    -4.38996670e+01    2.29529012e-01    -1.02115966e+02    
1840000000   2.34858139e-01    -1.68087577e+02    9.70050018e-01    -4.49114885e+01    9.70050018e-01    -4.49114885e+01    2.35201544e-01    -1.02396191e+02    
1880000000   2.40636682e-01    -1.69823464e+02    9.68625623e-01    -4.59272160e+01    9.68625623e-01    -4.59272160e+01    2.40843120e-01    -1.02677567e+02    
1920000000   2.46444624e-01    -1.71557763e+02    9.67132871e-01    -4.69476230e+01    9.67132871e-01    -4.69476230e+01    2.46424387e-01    -1.02945811e+02    
1960000000   2.52287188e-01    -1.73285265e+02    9.65508669e-01    -4.79715985e+01    9.65508669e-01    -4.79715985e+01    2.52025581e-01    -1.03162627e+02    
2000000000   2.58226965e-01    -1.75009224e+02    9.63769201e-01    -4.89900974e+01    9.63769201e-01    -4.89900974e+01    2.58080781e-01    -1.03356171e+02    
2040000000   2.64232503e-01    -1.76750378e+02    9.62125674e-01    -5.00063969e+01    9.62125674e-01    -5.00063969e+01    2.64342652e-01    -1.03656082e+02    
2080000000   2.70232108e-01    -1.78500673e+02    9.60505042e-01    -5.10298205e+01    9.60505042e-01    -5.10298205e+01    2.70389318e-01    -1.03997184e+02    
2120000000   2.76234914e-01    1.79747097e+02    9.58831693e-01    -5.20588179e+01    9.58831693e-01    -5.20588179e+01    2.76329004e-01    -1.04334197e+02    
2160000000   2.82249996e-01    1.77993589e+02    9.57098012e-01    -5.30917585e+01    9.57098012e-01    -5.30917585e+01    2.82245590e-01    -1.04665580e+02    
2200000000   2.88279168e-01    1.76238640e+02    9.55307034e-01    -5.41280392e+01    9.55307034e-01    -5.41280392e+01    2.88169087e-01    -1.04994610e+02    
2240000000   2.94321952e-01    1.74482254e+02    9.53461409e-01    -5.51674523e+01    9.53461409e-01    -5.51674523e+01    2.94110943e-01    -1.05323582e+02    
2280000000   3.00377569e-01    1.72724604e+02    9.51562707e-01    -5.62099321e+01    9.51562707e-01    -5.62099321e+01    3.00076693e-01    -1.05653877e+02    
2320000000   3.06445626e-01    1.70965959e+02    9.49611748e-01    -5.72554701e+01    9.49611748e-01    -5.72554701e+01    3.06069906e-01    -1.05986362e+02    
2360000000   3.12526356e-01    1.69206621e+02    9.47608870e-01    -5.83040864e+01    9.47608870e-01    -5.83040864e+01    3.12093486e-01    -1.06321635e+02    
2400000000   3.18620702e-01    1.67446885e+02    9.45554063e-01    -5.93558184e+01    9.45554063e-01    -5.93558184e+01    3.18150126e-01    -1.06660150e+02    
2440000000   3.24730306e-01    1.65687003e+02    9.43447036e-01    -6.04107166e+01    9.43447036e-01    -6.04107166e+01    3.24242465e-01    -1.07002292e+02    
2480000000   3.30857460e-01    1.63927166e+02    9.41287237e-01    -6.14688421e+01    9.41287237e-01    -6.14688421e+01    3.30373136e-01    -1.07348405e+02    
2520000000   3.37005018e-01    1.62167490e+02    9.39073854e-01    -6.25302656e+01    9.39073854e-01    -6.25302656e+01    3.36544769e-01    -1.07698815e+02    
2560000000   3.43176287e-01    1.60408004e+02    9.36805813e-01    -6.35950660e+01    9.36805813e-01    -6.35950659e+01    3.42759973e-01    -1.08053837e+02    
2600000000   3.49374910e-01    1.58648654e+02    9.34481762e-01    -6.46633296e+01    9.34481762e-01    -6.46633296e+01    3.49021315e-01    -1.08413778e+02    
2640000000   3.55604741e-01    1.56889302e+02    9.32100066e-01    -6.57351491e+01    9.32100066e-01    -6.57351491e+01    3.55331296e-01    -1.08778938e+02    
2680000000   3.61869730e-01    1.55129737e+02    9.29658800e-01    -6.68106223e+01    9.29658800e-01    -6.68106223e+01    3.61692328e-01    -1.09149609e+02    
2720000000   3.68173814e-01    1.53369687e+02    9.27155750e-01    -6.78898509e+01    9.27155750e-01    -6.78898509e+01    3.68106707e-01    -1.09526071e+02    
2760000000   3.75770155e-01    1.51918824e+02    9.24890724e-01    -6.88900424e+01    9.24890724e-01    -6.88900424e+01    3.73923588e-01    -1.10082593e+02    
2800000000   3.82376155e-01    1.50139648e+02    9.22148325e-01    -6.99779184e+01    9.22148325e-01    -6.99779184e+01    3.80798209e-01    -1.10443170e+02    
2840000000   3.89021327e-01    1.48359270e+02    9.19326851e-01    -7.10703981e+01    9.19326851e-01    -7.10703981e+01    3.87739326e-01    -1.10812873e+02    
2880000000   3.95708525e-01    1.46577373e+02    9.16423950e-01    -7.21675766e+01    9.16423950e-01    -7.21675766e+01    3.94743429e-01    -1.11191949e+02    
2920000000   4.02440461e-01    1.44793591e+02    9.13437223e-01    -7.32695471e+01    9.13437223e-01    -7.32695471e+01    4.01806875e-01    -1.11580550e+02    
2960000000   4.09219657e-01    1.43007516e+02    9.10364230e-01    -7.43764011e+01    9.10364230e-01    -7.43764011e+01    4.08925937e-01    -1.11978745e+02    
3000000000   4.16048397e-01    1.41218705e+02    9.07202510e-01    -7.54882281e+01    9.07202510e-01    -7.54882281e+01    4.16096868e-01    -1.12386523e+02    
3040000000   4.22928697e-01    1.39426696e+02    9.03949587e-01    -7.66051169e+01    9.03949587e-01    -7.66051169e+01    4.23315968e-01    -1.12803805e+02    
3080000000   4.29862270e-01    1.37631009e+02    9.00602979e-01    -7.77271555e+01    9.00602979e-01    -7.77271555e+01    4.30579650e-01    -1.13230450e+02    
3120000000   4.36850511e-01    1.35831163e+02    8.97160203e-01    -7.88544324e+01    8.97160203e-01    -7.88544324e+01    4.37884513e-01    -1.13666264e+02    
3160000000   4.43894485e-01    1.34026677e+02    8.93618772e-01    -7.99870375e+01    8.93618772e-01    -7.99870375e+01    4.45227413e-01    -1.14111011e+02    
3200000000   4.50994922e-01    1.32217081e+02    8.89976199e-01    -8.11250628e+01    8.89976199e-01    -8.11250628e+01    4.52605530e-01    -1.14564420e+02    
3240000000   4.58152227e-01    1.30401924e+02    8.86229988e-01    -8.22686043e+01    8.86229988e-01    -8.22686043e+01    4.60016427e-01    -1.15026198e+02    
3280000000   4.65366496e-01    1.28580777e+02    8.82377622e-01    -8.34177621e+01    8.82377622e-01    -8.34177621e+01    4.67458109e-01    -1.15496038e+02    
3320000000   4.72637539e-01    1.26753237e+02    8.78416552e-01    -8.45726426e+01    8.78416552e-01    -8.45726426e+01    4.74929065e-01    -1.15973631e+02    
3360000000   4.79964916e-01    1.24918936e+02    8.74344179e-01    -8.57333590e+01    8.74344179e-01    -8.57333590e+01    4.82428303e-01    -1.16458673e+02    
3400000000   4.87347976e-01    1.23077538e+02    8.70157835e-01    -8.69000322e+01    8.70157835e-01    -8.69000322e+01    4.89955368e-01    -1.16950877e+02    
3440000000   4.94785902e-01    1.21228744e+02    8.65854758e-01    -8.80727924e+01    8.65854758e-01    -8.80727924e+01    4.97510353e-01    -1.17449980e+02    
3480000000   5.02277764e-01    1.19372291e+02    8.61432075e-01    -8.92517789e+01    8.61432075e-01    -8.92517789e+01    5.05093889e-01    -1.17955755e+02    
3520000000   5.09822569e-01    1.17507948e+02    8.56886769e-01    -9.04371417e+01    8.56886769e-01    -9.04371417e+01    5.12707127e-01    -1.18468012e+02    
3560000000   5.17419315e-01    1.15635520e+02    8.52215658e-01    -9.16290409e+01    8.52215658e-01    -9.16290409e+01    5.20351701e-01    -1.18986606e+02    
3600000000   5.25067043e-01    1.13754837e+02    8.47415370e-01    -9.28276476e+01    8.47415370e-01    -9.28276476e+01    5.28029681e-01    -1.19511444e+02    
3640000000   5.32764878e-01    1.11865758e+02    8.42482320e-01    -9.40331437e+01    8.42482320e-01    -9.40331437e+01    5.35743519e-01    -1.20042485e+02    
3680000000   5.40512077e-01    1.09968158e+02    8.37412690e-01    -9.52457215e+01    8.37412690e-01    -9.52457215e+01    5.43495974e-01    -1.20579741e+02    
3720000000   5.48308055e-01    1.08061928e+02    8.32202408e-01    -9.64655837e+01    8.32202408e-01    -9.64655837e+01    5.51290045e-01    -1.21123280e+02    
3760000000   5.56152410e-01    1.06146967e+02    8.26847133e-01    -9.76929426e+01    8.26847133e-01    -9.76929426e+01    5.59128884e-01    -1.21673225e+02    
3800000000   5.64044936e-01    1.04223178e+02    8.21342247e-01    -9.89280197e+01    8.21342247e-01    -9.89280197e+01    5.67015713e-01    -1.22229748e+02    
3840000000   5.71985623e-01    1.02290458e+02    8.15682841e-01    -1.00171045e+02    8.15682841e-01    -1.00171045e+02    5.74953739e-01    -1.22793073e+02    
3880000000   5.79974650e-01    1.00348698e+02    8.09863716e-01    -1.01422254e+02    8.09863716e-01    -1.01422255e+02    5.82946069e-01    -1.23363467e+02    
3920000000   5.88012359e-01    9.83977742e+01    8.03879379e-01    -1.02681893e+02    8.03879379e-01    -1.02681893e+02    5.90995623e-01    -1.23941237e+02    
3960000000   5.96099233e-01    9.64375470e+01    7.97724043e-01    -1.03950211e+02    7.97724043e-01    -1.03950211e+02    5.99105054e-01    -1.24526727e+02    
4000000000   6.04235851e-01    9.44678543e+01    7.91391639e-01    -1.05227462e+02    7.91391639e-01    -1.05227462e+02    6.07276672e-01    -1.25120308e+02    
4040000000   6.12422844e-01    9.24885107e+01    7.84875815e-01    -1.06513904e+02    7.84875815e-01    -1.06513904e+02    6.15512374e-01    -1.25722377e+02    
4080000000   6.20660839e-01    9.04993053e+01    7.78169951e-01    -1.07809800e+02    7.78169951e-01    -1.07809800e+02    6.23813576e-01    -1.26333349e+02    
4120000000   6.28950405e-01    8.85000004e+01    7.71267167e-01    -1.09115412e+02    7.71267167e-01    -1.09115412e+02    6.32181157e-01    -1.26953652e+02    
4160000000   6.37291988e-01    8.64903315e+01    7.64160336e-01    -1.10431006e+02    7.64160336e-01    -1.10431006e+02    6.40615408e-01    -1.27583719e+02    
4200000000   6.45685848e-01    8.44700072e+01    7.56842097e-01    -1.11756847e+02    7.56842097e-01    -1.11756847e+02    6.49115987e-01    -1.28223988e+02    
4240000000   6.54131991e-01    8.24387109e+01    7.49304863e-01    -1.13093199e+02    7.49304863e-01    -1.13093199e+02    6.57681886e-01    -1.28874889e+02    
4280000000   6.62630104e-01    8.03961022e+01    7.41540842e-01    -1.14440323e+02    7.41540842e-01    -1.14440323e+02    6.66311400e-01    -1.29536848e+02    
4320000000   6.71179488e-01    7.83418191e+01    7.33542047e-01    -1.15798478e+02    7.33542047e-01    -1.15798478e+02    6.75002109e-01    -1.30210275e+02    
4360000000   6.79778993e-01    7.62754810e+01    7.25300311e-01    -1.17167917e+02    7.25300311e-01    -1.17167917e+02    6.83750866e-01    -1.30895566e+02    
4400000000   6.88426956e-01    7.41966919e+01    7.16807308e-01    -1.18548885e+02    7.16807308e-01    -1.18548885e+02    6.92553790e-01    -1.31593097e+02    
4440000000   6.97121137e-01    7.21050439e+01    7.08054566e-01    -1.19941619e+02    7.08054566e-01    -1.19941619e+02    7.01406271e-01    -1.32303220e+02    
4480000000   7.05858663e-01    7.00001213e+01    6.99033494e-01    -1.21346342e+02    6.99033494e-01    -1.21346342e+02    7.10302972e-01    -1.33026262e+02    
4520000000   7.14635974e-01    6.78815046e+01    6.89735407e-01    -1.22763262e+02    6.89735407e-01    -1.22763262e+02    7.19237853e-01    -1.33762524e+02    
4560000000   7.23448774e-01    6.57487751e+01    6.80151553e-01    -1.24192571e+02    6.80151553e-01    -1.24192571e+02    7.28204180e-01    -1.34512278e+02    
4600000000   7.32291987e-01    6.36015196e+01    6.70273153e-01    -1.25634435e+02    6.70273153e-01    -1.25634435e+02    7.37194552e-01    -1.35275767e+02    
4640000000   7.41159719e-01    6.14393347e+01    6.60091445e-01    -1.27088993e+02    6.60091445e-01    -1.27088993e+02    7.46200928e-01    -1.36053204e+02    
4680000000   7.50045226e-01    5.92618321e+01    6.49597729e-01    -1.28556353e+02    6.49597729e-01    -1.28556353e+02    7.55214652e-01    -1.36844774e+02    
4720000000   7.58940891e-01    5.70686428e+01    6.38783426e-01    -1.30036585e+02    6.38783426e-01    -1.30036585e+02    7.64226483e-01    -1.37650630e+02    
4760000000   7.67838209e-01    5.48594221e+01    6.27640147e-01    -1.31529715e+02    6.27640147e-01    -1.31529715e+02    7.73226622e-01    -1.38470899e+02    
4800000000   7.76727775e-01    5.26338535e+01    6.16159764e-01    -1.33035719e+02    6.16159764e-01    -1.33035719e+02    7.82204742e-01    -1.39305679e+02    
4840000000   7.85599289e-01    5.03916539e+01    6.04334494e-01    -1.34554516e+02    6.04334494e-01    -1.34554516e+02    7.91150013e-01    -1.40155039e+02    
4880000000   7.94441558e-01    4.81325767e+01    5.92156990e-01    -1.36085958e+02    5.92156990e-01    -1.36085958e+02    8.00051128e-01    -1.41019027e+02    
4920000000   8.03242520e-01    4.58564165e+01    5.79620435e-01    -1.37629829e+02    5.79620435e-01    -1.37629829e+02    8.08896322e-01    -1.41897661e+02    
4960000000   8.11989272e-01    4.35630124e+01    5.66718651e-01    -1.39185828e+02    5.66718651e-01    -1.39185828e+02    8.17673398e-01    -1.42790940e+02    
5000000000   8.20668104e-01    4.12522514e+01    5.53446203e-01    -1.40753565e+02    5.53446203e-01    -1.40753565e+02    8.26369738e-01    -1.43698836e+02    
5040000000   8.29264555e-01    3.89240713e+01    5.39798512e-01    -1.42332553e+02    5.39798512e-01    -1.42332553e+02    8.34972321e-01    -1.44621301e+02    
5080000000   8.37763473e-01    3.65784635e+01    5.25771960e-01    -1.43922192e+02    5.25771960e-01    -1.43922192e+02    8.43467735e-01    -1.45558263e+02    
5120000000   8.46149091e-01    3.42154748e+01    5.11364002e-01    -1.45521767e+02    5.11364002e-01    -1.45521767e+02    8.51842194e-01    -1.46509629e+02    
5160000000   8.54405108e-01    3.18352091e+01    4.96573255e-01    -1.47130425e+02    4.96573255e-01    -1.47130425e+02    8.60081545e-01    -1.47475282e+02    
5200000000   8.62514787e-01    2.94378282e+01    4.81399592e-01    -1.48747172e+02    4.81399592e-01    -1.48747172e+02    8.68171295e-01    -1.48455083e+02    
5240000000   8.70461062e-01    2.70235520e+01    4.65844209e-01    -1.50370848e+02    4.65844209e-01    -1.50370848e+02    8.76096626e-01    -1.49448865e+02    
5280000000   8.78226646e-01    2.45926583e+01    4.49909683e-01    -1.52000115e+02    4.49909683e-01    -1.52000115e+02    8.83842429e-01    -1.50456437e+02    
5320000000   8.85794156e-01    2.21454815e+01    4.33600010e-01    -1.53633423e+02    4.33600010e-01    -1.53633423e+02    8.91393340e-01    -1.51477578e+02    
5360000000   8.93146230e-01    1.96824105e+01    4.16920619e-01    -1.55268984e+02    4.16920619e-01    -1.55268984e+02    8.98733790e-01    -1.52512036e+02    
5400000000   9.00265660e-01    1.72038868e+01    3.99878366e-01    -1.56904725e+02    3.99878366e-01    -1.56904725e+02    9.05848064e-01    -1.53559528e+02    
5440000000   9.07135513e-01    1.47104007e+01    3.82481518e-01    -1.58538230e+02    3.82481518e-01    -1.58538230e+02    9.12720373e-01    -1.54619738e+02    
5480000000   9.12622019e-01    1.22039378e+01    3.66806025e-01    -1.59935376e+02    3.66806025e-01    -1.59935376e+02    9.18379740e-01    -1.55374004e+02    
5520000000   9.19001028e-01    9.67618517e+00    3.48710744e-01    -1.61565148e+02    3.48710744e-01    -1.61565148e+02    9.24805108e-01    -1.56465971e+02    
5560000000   9.25085893e-01    7.13419299e+00    3.30274615e-01    -1.63182885e+02    3.30274615e-01    -1.63182885e+02    9.30939161e-01    -1.57570705e+02    
5600000000   9.30860547e-01    4.57867300e+00    3.11512169e-01    -1.64783384e+02    3.11512169e-01    -1.64783384e+02    9.36765660e-01    -1.58687572e+02    
5640000000   9.36309819e-01    2.01037901e+00    2.92439400e-01    -1.66360205e+02    2.92439400e-01    -1.66360205e+02    9.42269093e-01    -1.59815897e+02    
5680000000   9.41419551e-01    -5.69901693e-01    2.73073677e-01    -1.67905212e+02    2.73073677e-01    -1.67905212e+02    9.47434809e-01    -1.60954970e+02    
5720000000   9.46176699e-01    -3.16135723e+00    2.53433709e-01    -1.69407873e+02    2.53433709e-01    -1.69407873e+02    9.52249124e-01    -1.62104058e+02    
5760000000   9.50569393e-01    -5.76316017e+00    2.33539577e-01    -1.70854175e+02    2.33539577e-01    -1.70854175e+02    9.56699411e-01    -1.63262409e+02    
5800000000   9.54586976e-01    -8.37447634e+00    2.13412901e-01    -1.72224901e+02    2.13412901e-01    -1.72224901e+02    9.60774164e-01    -1.64429262e+02    
5840000000   9.58220011e-01    -1.09944731e+01    1.93077231e-01    -1.73492780e+02    1.93077231e-01    -1.73492780e+02    9.64463050e-01    -1.65603852e+02    
5880000000   9.61460260e-01    -1.36223268e+01    1.72558842e-01    -1.74617556e+02    1.72558842e-01    -1.74617556e+02    9.67756918e-01    -1.66785420e+02    
