!Agilent Technologies,E8361C,US49010278,A.09.20.08
!Agilent E8361C: A.09.20.08
!Date: Tuesday, December 15, 2015 15:50:35
!Correction: S11(Full 2 Port(1,2)) 
!S21(Full 2 Port(1,2)) 
!S12(Full 2 Port(1,2)) 
!S22(Full 2 Port(1,2)) 
!S2P File: Measurements: S11, S21, S12, S22:
# Hz S  RI   R 50
1000000000 -0.0048736511 0.0050130445 -0.58004862 -0.80267489 -0.58058864 -0.80429482 -0.0075702234 0.00072545331
1040000000 -0.0016489543 0.0033457084 -0.64681232 -0.74909091 -0.648076 -0.75080031 -0.0071606464 0.0022282517
1080000000 -0.0021304241 0.0021163847 -0.71068376 -0.689408 -0.7111395 -0.69048011 -0.0047595156 0.00024191893
1120000000 0.0010342263 0.004281146 -0.76784003 -0.62399763 -0.76928914 -0.62405396 -0.0039117122 0.0018537469
1160000000 0.0028454589 0.002124679 -0.81997585 -0.55383772 -0.82060397 -0.5538308 -0.0025127165 -0.001395183
1200000000 0.0047171777 0.0018747194 -0.86487114 -0.48102185 -0.86722749 -0.48031935 -0.00072494592 -0.00049339485
1240000000 0.006242801 0.00063941278 -0.90285283 -0.40355161 -0.90572101 -0.40289745 1.483335e-005 -0.0014840717
1280000000 0.0056921961 -0.0010773456 -0.93565106 -0.32230297 -0.93708467 -0.32230854 0.00052626198 -0.0016012031
1320000000 0.0072722472 -0.0036162692 -0.95976365 -0.23861009 -0.96140665 -0.23919933 0.0005778406 -0.0048797098
1360000000 0.0065025291 -0.0034947006 -0.97753024 -0.15458752 -0.97874808 -0.15426612 0.0010665805 -0.0037096429
1400000000 0.0077848849 -0.0075114076 -0.98705626 -0.068354718 -0.98864186 -0.067525625 0.0014017026 -0.0087092994
1440000000 0.0067515131 -0.0099199051 -0.98859388 0.017477833 -0.98916793 0.01876422 -0.0012115873 -0.0084438259
1480000000 0.0056207543 -0.010491272 -0.98250413 0.10412208 -0.98342472 0.10517267 0.00034076249 -0.011339856
1520000000 0.0030639945 -0.0144482 -0.9694196 0.19105445 -0.97034854 0.191166 -0.0020403801 -0.01412086
1560000000 0.0022993789 -0.014009612 -0.94963342 0.27231064 -0.94938558 0.27148262 -0.0025523272 -0.014086972
1600000000 -0.0067069028 -0.01667095 -0.9210071 0.35530055 -0.91797006 0.35263517 -0.005992088 -0.012594867
1640000000 -0.004621475 -0.017215973 -0.8831678 0.43363425 -0.88267368 0.4347603 -0.0058125979 -0.018161181
1680000000 -0.0074105663 -0.026196837 -0.84340709 0.50969869 -0.8396017 0.51292264 -0.013328219 -0.017072208
1720000000 -0.011835208 -0.022565266 -0.79107898 0.58237654 -0.7940737 0.58568895 -0.010070411 -0.020796394
1760000000 -0.010046302 -0.024849566 -0.73834395 0.64972389 -0.74217302 0.65341842 -0.01760762 -0.021673962
1800000000 -0.013251053 -0.026537675 -0.68023753 0.71454519 -0.6820789 0.71526039 -0.016577752 -0.022279611
1840000000 -0.018765422 -0.023768345 -0.61360699 0.7718522 -0.61643493 0.77143198 -0.022556972 -0.021251649
1880000000 -0.019846227 -0.024059581 -0.54557133 0.82093781 -0.54589981 0.82329029 -0.021626385 -0.021920182
1920000000 -0.021134995 -0.021592546 -0.47279218 0.86654085 -0.47253731 0.86739504 -0.029178753 -0.020390838
1960000000 -0.023120679 -0.019497612 -0.39678127 0.90354484 -0.39642102 0.9047091 -0.02820047 -0.015913019
2000000000 -0.028990952 -0.015182509 -0.3155137 0.93293709 -0.31549609 0.93428224 -0.031371567 -0.018439464
2040000000 -0.028532255 -0.011051323 -0.2342179 0.9550842 -0.23235752 0.95881116 -0.034449104 -0.012162034
2080000000 -0.035778277 -0.0099112047 -0.14787705 0.97362512 -0.14849575 0.97332889 -0.036443178 -0.0096068755
2120000000 -0.035432566 0.0012481522 -0.060884286 0.97922087 -0.066042334 0.98361504 -0.036982972 -0.0096595651
2160000000 -0.038690541 -0.0024941876 0.023099104 0.98237246 0.022890292 0.98165327 -0.040255342 -0.0014671695
2200000000 -0.044993248 0.0054474524 0.11301845 0.97497362 0.10843722 0.97229904 -0.039117694 0.0033798611
2240000000 -0.042837791 0.0057303989 0.19584329 0.95927459 0.19918409 0.9598667 -0.044853918 0.005678046
2280000000 -0.045484394 0.0091463979 0.27887446 0.94089001 0.28275722 0.93850076 -0.043025669 0.013763126
2320000000 -0.045708887 0.012805321 0.36232761 0.91100425 0.36511672 0.91358763 -0.043334521 0.013641185
2360000000 -0.040429451 0.017031355 0.44072068 0.87647945 0.44067305 0.87909389 -0.044285793 0.018498689
2400000000 -0.040015478 0.019359309 0.5145995 0.83542955 0.51577389 0.83831322 -0.040056705 0.021044414
2440000000 -0.038616188 0.02508056 0.5875901 0.78710973 0.58587986 0.78798389 -0.039192118 0.026749203
2480000000 -0.033054452 0.024850899 0.65176129 0.73401785 0.65341902 0.73567057 -0.034383401 0.026057262
2520000000 -0.032251328 0.027824355 0.71487612 0.67623132 0.71437055 0.67584836 -0.033917878 0.031300075
2560000000 -0.025619358 0.026729729 0.76900685 0.61220199 0.76952219 0.61103094 -0.027212208 0.032157268
2600000000 -0.019735472 0.031580728 0.8165096 0.54089695 0.81906569 0.54174721 -0.025157858 0.033476107
2640000000 -0.014507925 0.032366358 0.85863268 0.4671967 0.86357778 0.46611577 -0.020419966 0.036519986
2680000000 -0.012429883 0.039383225 0.8951574 0.38721842 0.90019578 0.38889006 -0.016281789 0.036098644
2720000000 -0.0081339087 0.039668955 0.92647272 0.30399203 0.93001342 0.3087393 -0.01079103 0.03690777
2760000000 -0.0099860691 0.042501446 0.95153701 0.22332537 0.95111424 0.22449896 -0.0068349591 0.037896764
2800000000 -0.0038074753 0.03664428 0.96755862 0.13714795 0.96732038 0.14106733 0.00033619744 0.036124002
2840000000 -0.00082594337 0.036593273 0.97701353 0.053791258 0.97711104 0.053262468 -0.0016271606 0.036475487
2880000000 0.00059300463 0.036814172 0.97875321 -0.031493369 0.97921234 -0.034331586 0.0049477513 0.036511235
2920000000 0.001477245 0.031727333 0.97189015 -0.11887052 0.97570908 -0.11836385 0.0035542385 0.031081375
2960000000 0.0054143067 0.025146218 0.95941454 -0.203701 0.96158385 -0.20151362 0.0092053022 0.031040484
3000000000 0.0069168932 0.024868339 0.9379006 -0.28441718 0.93702233 -0.28446183 0.0098027075 0.022321878
3040000000 0.010994855 0.01983979 0.90744203 -0.36556402 0.90911764 -0.36446518 0.012079911 0.020503258
3080000000 -0.0046790596 -0.0011701453 0.87942547 -0.43769041 0.88003618 -0.44620818 0.0136986 0.018555053
3120000000 0.001214124 0.0073512462 0.84302211 -0.5155701 0.83924568 -0.51274961 0.0049517467 0.017034393
3160000000 0.015619891 -0.011684955 0.78085124 -0.58506185 0.79332656 -0.58354694 0.0041697701 0.0097851111
3200000000 0.010715044 -0.0047429278 0.7306186 -0.64098221 0.72725683 -0.64778018 0.010373938 0.0025783789
3240000000 0.024215037 -0.0028498 0.66921645 -0.71550071 0.66764414 -0.70319003 0.0032862413 -0.0065144948
3280000000 0.01642382 -0.0014292399 0.59341395 -0.76603389 0.60199815 -0.76762325 0.0058135511 -0.0030160614
3320000000 0.012048505 0.0089427102 0.53077012 -0.81215978 0.52185601 -0.81818068 0.013159283 -0.011249498
3360000000 0.00056718884 0.00092796516 0.45278883 -0.86284691 0.45177877 -0.85893941 0.0040225415 -0.0058684158
3400000000 -0.0095633417 0.002751909 0.36790216 -0.89597809 0.37744674 -0.90327793 -0.00059289171 -0.0092876013
3440000000 -0.0021349804 0.0033915655 0.29399174 -0.92983246 0.29232785 -0.93541747 -0.0071076038 -0.0041029509
3480000000 -0.01255329 -0.0032062132 0.20796494 -0.95826805 0.21016955 -0.95466304 -0.0085882489 -0.014367721
3520000000 -0.021062579 0.016625777 0.12836969 -0.97301257 0.12893341 -0.97267252 -0.017672682 -0.0086421706
3560000000 -0.022677518 0.0083323149 0.044637032 -0.98479277 0.043816973 -0.98642284 -0.010300837 -0.0056120222
3600000000 -0.047443695 0.0040827389 -0.039040148 -0.97682542 -0.041963279 -0.98361367 -0.021226481 4.0672909e-005
3640000000 -0.035679244 0.0018568287 -0.12077397 -0.97273779 -0.12191274 -0.97291452 -0.02888545 0.0014574899
3680000000 -0.038177811 -0.0034396674 -0.21168776 -0.96007228 -0.20458515 -0.95952785 -0.037111588 0.0055432911
3720000000 -0.035014998 0.0031724703 -0.28998396 -0.93069667 -0.29028919 -0.93533105 -0.037733264 0.0064167148
3760000000 -0.034287438 0.0063421116 -0.36061129 -0.9031648 -0.37051389 -0.90000933 -0.041076239 0.0042299535
3800000000 -0.031068439 0.016336489 -0.44860712 -0.86183447 -0.44231519 -0.86321682 -0.043141183 0.015418101
3840000000 -0.027439617 0.026746826 -0.5155769 -0.80837291 -0.52366668 -0.82020539 -0.041752268 0.015896076
3880000000 -0.035440274 0.029255003 -0.58860523 -0.76552314 -0.59611166 -0.76304561 -0.038100548 0.020776764
3920000000 -0.036810853 0.039808489 -0.66212797 -0.70501548 -0.65560436 -0.71117526 -0.047066253 0.030167768
3960000000 -0.025200441 0.031002961 -0.72179657 -0.64601296 -0.72719592 -0.65385497 -0.036286622 0.040736668
4000000000 -0.032718483 0.045724295 -0.77385145 -0.58793944 -0.77512711 -0.59017324 -0.038859181 0.041568048
4040000000 -0.029462645 0.052783869 -0.82201791 -0.51783705 -0.82436281 -0.51809847 -0.035450708 0.050013427
4080000000 -0.020184748 0.061468925 -0.87317216 -0.44457611 -0.87464666 -0.441347 -0.031101264 0.044083916
4120000000 -0.021707011 0.083969556 -0.89983392 -0.36742446 -0.9057793 -0.36447099 -0.022935331 0.05629852
4160000000 -0.019034022 0.074594654 -0.93310654 -0.29301971 -0.93329448 -0.29227701 -0.015130079 0.063938022
4200000000 -0.03221368 0.076467663 -0.9551475 -0.20320986 -0.95700788 -0.211081 -0.010771444 0.073384948
4240000000 -0.013556608 0.071772948 -0.96013469 -0.1264924 -0.96575785 -0.12369855 -0.011727623 0.071801171
4280000000 -0.010336713 0.06458094 -0.97376937 -0.04402519 -0.96795702 -0.040168788 -0.008497077 0.079540446
4320000000 0.0019306291 0.065964989 -0.96692413 0.049916614 -0.9680571 0.043580804 0.0027520042 0.076242089
4360000000 0.015307834 0.063259467 -0.94962662 0.12718962 -0.95786667 0.13614404 0.0063728243 0.070650533
4400000000 0.020945661 0.072222292 -0.93861657 0.21311407 -0.93628985 0.21906184 0.017038962 0.07350377
4440000000 0.035555486 0.071528241 -0.90888745 0.30512044 -0.91484427 0.29734588 0.024588726 0.076505184
4480000000 0.03132733 0.060942195 -0.88266164 0.38489175 -0.88978922 0.38946685 0.036749303 0.066243477
4520000000 0.039795641 0.067370161 -0.85363352 0.45661956 -0.85474879 0.45709398 0.041105755 0.067385025
4560000000 0.048110165 0.063894652 -0.80963486 0.53019375 -0.81032866 0.52971435 0.046670664 0.062053163
4600000000 0.049806204 0.058899518 -0.76020592 0.60590088 -0.76008666 0.60845596 0.051805608 0.04989842
4640000000 0.075645633 0.053123023 -0.70711583 0.66573197 -0.70869821 0.66859734 0.061605934 0.052338511
4680000000 0.065631174 0.050160374 -0.64997131 0.72758591 -0.64895719 0.72685415 0.063366801 0.045592044
4720000000 0.075556576 0.061361346 -0.58212912 0.77836496 -0.58417541 0.77569318 0.06881839 0.037395928
4760000000 0.067384258 0.044381514 -0.51360857 0.8193751 -0.51113695 0.82340956 0.066183254 0.031300463
4800000000 0.063166864 0.047263589 -0.44166476 0.86079395 -0.43504336 0.86154747 0.077030316 0.025124492
4840000000 0.063142456 0.030726254 -0.35788026 0.89494181 -0.36142418 0.89370507 0.078978203 0.018772958
4880000000 0.055910405 0.017903039 -0.27430835 0.91551518 -0.27462569 0.92402893 0.073383369 0.015771929
4920000000 0.067009442 0.0088901585 -0.19592053 0.93525839 -0.19319299 0.93696648 0.066666745 0.011720326
4960000000 0.062732093 -0.0040905965 -0.10513182 0.95406073 -0.11369355 0.95101297 0.06965071 0.0076671685
5000000000 0.065001003 -0.0052922419 -0.025795123 0.9636569 -0.026851967 0.96515453 0.062514931 -0.0088663353
5040000000 0.062037811 -0.005879289 0.059721462 0.96245408 0.058546804 0.96380758 0.060533017 -0.014692286
5080000000 0.051647201 -0.029296286 0.14799437 0.95599079 0.14797859 0.95979267 0.053326711 -0.023604795
5120000000 0.054084286 -0.022394113 0.23358278 0.94326121 0.23112775 0.94354153 0.048814218 -0.020775601
5160000000 0.062527843 -0.028455947 0.31330708 0.91572589 0.31129009 0.91750503 0.040346578 -0.032689702
5200000000 0.046340458 -0.020534718 0.39141035 0.88765579 0.3928428 0.8896153 0.031309411 -0.028848242
5240000000 0.046781454 -0.025334597 0.46435249 0.8508929 0.46943453 0.85199153 0.032855839 -0.039213181
5280000000 0.033121668 -0.026773229 0.53765547 0.80936754 0.53681004 0.81045336 0.028555358 -0.039266188
5320000000 0.036532514 -0.023409573 0.60467398 0.75615633 0.60387343 0.76182747 0.021810669 -0.034983303
5360000000 0.026259255 -0.022090206 0.6581592 0.69952297 0.66133428 0.69752389 0.01976838 -0.028905017
5400000000 0.018264836 -0.015118025 0.72081745 0.63771939 0.71609998 0.63636494 0.012123817 -0.031990625
5440000000 0.017067345 -0.012562061 0.77099633 0.56221902 0.77772373 0.563034 0.0028711278 -0.023139441
5480000000 0.0060493788 -0.018025503 0.81999689 0.49261844 0.82303077 0.4889439 0.0019479009 -0.016530208
5520000000 0.00075502548 -0.0022910538 0.86643714 0.41694742 0.86692363 0.41599613 -0.0058574202 -0.017344544
5560000000 -0.00484769 -0.0038164232 0.89999402 0.33314019 0.9030441 0.33886257 -0.0059386808 -0.011445261
5600000000 -0.0090174889 -0.0046271286 0.92671657 0.25796494 0.92990267 0.25780755 -0.011610064 -0.0035292492
5640000000 -0.0033462327 -0.0027047689 0.9481135 0.17549004 0.94680601 0.173171 -0.0054533533 0.0059154895
5680000000 -0.009253365 0.0072720535 0.95951861 0.09094052 0.96041799 0.090004355 -0.0178831 0.009099693
5720000000 0.0024193423 0.0059099342 0.96674651 0.0092138601 0.97023445 0.0083960183 -0.017470518 0.016290128
5760000000 0.0078094145 0.0033847878 0.96524262 -0.07325355 0.96914238 -0.073445939 -0.018638644 0.012052015
5800000000 0.0046586548 0.018950012 0.95588547 -0.15541297 0.95444208 -0.15561666 -0.011819663 0.015555847
5840000000 0.016551541 0.022006979 0.93667328 -0.23734587 0.93746191 -0.23406504 -0.0076552723 0.02113414
5880000000 0.01157187 0.026917687 0.90584582 -0.31529254 0.90759605 -0.31885654 0.0027903162 0.031145278
5920000000 0.020792842 0.025866244 0.87525392 -0.39108366 0.874183 -0.39572212 0.0045497594 0.032977324
5960000000 0.02391671 0.031190578 0.83598274 -0.47057033 0.83456463 -0.46962523 0.0096270768 0.035114951
6000000000 0.02621384 0.036737639 0.78827524 -0.54733807 0.78916985 -0.54706526 0.020248791 0.040074527
6040000000 0.029526139 0.038626064 0.73608613 -0.61375284 0.73836368 -0.61398131 0.025858117 0.043977126
6080000000 0.029241297 0.041168448 0.67754483 -0.6734997 0.67365909 -0.67381555 0.041515596 0.035571802
6120000000 0.046208534 0.043733977 0.61208838 -0.73569977 0.61191422 -0.73722166 0.044177383 0.043419573
6160000000 0.0483387 0.033371504 0.54541224 -0.78611219 0.54682475 -0.78870255 0.053723577 0.04262225
6200000000 0.051672779 0.043934327 0.47557169 -0.83268976 0.4769395 -0.83605433 0.053025018 0.037271295
6240000000 0.064023711 0.031662215 0.40285426 -0.87435943 0.40376982 -0.87404609 0.062215023 0.029267004
6280000000 0.053739399 0.029015921 0.32490388 -0.90740293 0.32725379 -0.90747988 0.06974902 0.02791878
6320000000 0.072460845 0.02223926 0.24748453 -0.9313736 0.24703059 -0.93217117 0.080343708 0.020180814
6360000000 0.067552678 0.0045128316 0.17021334 -0.94775718 0.16767953 -0.94892901 0.079685003 0.02052111
6400000000 0.078079522 0.0074457615 0.086332493 -0.9575792 0.089566581 -0.95616287 0.077369854 0.011812889
6440000000 0.090334803 -0.010067592 0.00061261555 -0.95312911 0.0027188333 -0.95947546 0.078617185 0.001022641
6480000000 0.08734896 -0.010409627 -0.078408904 -0.94536579 -0.081462868 -0.94691765 0.082975999 -0.014328369
6520000000 0.094911925 -0.01565979 -0.1700985 -0.93603969 -0.16716559 -0.93647557 0.078593917 -0.022115812
6560000000 0.093508683 -0.026120845 -0.25352094 -0.91404653 -0.25328988 -0.91798669 0.088390648 -0.028964439
6600000000 0.087285221 -0.02599922 -0.32963061 -0.88818896 -0.33370087 -0.88740844 0.083865188 -0.042986583
6640000000 0.093333855 -0.04024718 -0.41251501 -0.85737848 -0.41266152 -0.85774469 0.080607533 -0.046050008
6680000000 0.081871353 -0.045840155 -0.49049309 -0.81589788 -0.49050039 -0.81970567 0.073724076 -0.056693237
6720000000 0.08741796 -0.042121433 -0.56098545 -0.77022266 -0.56247801 -0.77323574 0.072671235 -0.063462555
6760000000 0.075668633 -0.059297029 -0.62807542 -0.72685999 -0.62790519 -0.72574031 0.063618846 -0.073137507
6800000000 0.065040939 -0.051087309 -0.69203329 -0.67160791 -0.69054872 -0.67190498 0.063117363 -0.07654693
6840000000 0.062917441 -0.069373436 -0.74151033 -0.60902089 -0.74378997 -0.61166781 0.056462608 -0.081633747
6880000000 0.040882044 -0.07395719 -0.78764164 -0.54466081 -0.7933948 -0.54455173 0.049089231 -0.077491537
6920000000 0.044583883 -0.078269362 -0.83276689 -0.47326776 -0.83202589 -0.47268382 0.032683525 -0.082296267
6960000000 0.033101503 -0.092515528 -0.86947322 -0.39634398 -0.86974829 -0.4001303 0.024937414 -0.082493946
7000000000 0.030814035 -0.088046916 -0.89696401 -0.31549984 -0.89892083 -0.31489575 0.012727541 -0.090597384
7040000000 0.030623838 -0.091762044 -0.91854441 -0.23729572 -0.91809088 -0.23565349 0.0021912074 -0.086146787
7080000000 0.015998617 -0.083832197 -0.93847567 -0.15109339 -0.93812811 -0.15214638 -0.0029056747 -0.082220457
7120000000 0.011485382 -0.080187619 -0.94188702 -0.062398359 -0.9475202 -0.059798986 -0.016945241 -0.088038549
7160000000 0.0029962608 -0.087314472 -0.94660544 0.020817753 -0.9495132 0.021609459 -0.022058979 -0.078821845
7200000000 -0.0049016778 -0.078315184 -0.9476676 0.11090241 -0.94818181 0.10849545 -0.030287303 -0.072208002
7240000000 0.00093283993 -0.077193104 -0.93373108 0.19495077 -0.93592632 0.19229959 -0.035347521 -0.072341591
7280000000 -0.016266935 -0.068146728 -0.9181096 0.27240294 -0.91771132 0.27418748 -0.046189174 -0.068057418
7320000000 -0.013067801 -0.053140398 -0.89303309 0.35366973 -0.89234972 0.35551256 -0.040612701 -0.061710212
7360000000 -0.025572808 -0.05827713 -0.85807198 0.42739871 -0.86037213 0.42564517 -0.045205165 -0.054089155
7400000000 -0.03757662 -0.040403776 -0.81852317 0.49906027 -0.82271636 0.49963227 -0.04240384 -0.042242281
7440000000 -0.035343003 -0.045056999 -0.77005452 0.56603777 -0.76923066 0.56739438 -0.050079726 -0.031504523
7480000000 -0.042894553 -0.040376149 -0.72037286 0.62950593 -0.71827221 0.62835431 -0.046620402 -0.026065852
7520000000 -0.035585828 -0.032905668 -0.65496331 0.69076103 -0.65563625 0.69215816 -0.046530951 -0.021811446
7560000000 -0.033528388 -0.029032309 -0.5881623 0.73827112 -0.58864474 0.74302179 -0.041034557 -0.011993886
7600000000 -0.032368023 -0.017851444 -0.5214715 0.79122138 -0.52071983 0.79315442 -0.03814004 -0.0024013326
7640000000 -0.023020705 -0.014540192 -0.43730438 0.83596951 -0.4426294 0.83756036 -0.031964719 0.0061387569
7680000000 -0.031666044 -0.017082307 -0.36384019 0.87034154 -0.36633536 0.87629855 -0.037472583 0.009264145
7720000000 -0.022901714 -0.005232539 -0.29221311 0.90499187 -0.29333979 0.90695721 -0.028244987 0.011519464
7760000000 -0.016109042 -0.0024546126 -0.21216652 0.9281832 -0.21285783 0.92772174 -0.022256641 0.014571898
7800000000 -0.011415202 0.0055681402 -0.12624449 0.94501311 -0.12441141 0.94507396 -0.015852971 0.016446214
7840000000 -0.0053539532 7.7852521e-005 -0.04257825 0.95657319 -0.043448891 0.95409679 -0.0034241332 0.012447081
7880000000 0.00047866695 0.005268462 0.043790795 0.95617795 0.04124999 0.95749545 -0.0037549594 0.015832109
7920000000 0.018404337 0.00083667308 0.12280419 0.94470727 0.12339374 0.94966125 0.0064678458 0.010718548
7960000000 0.019228308 0.0040577278 0.2003938 0.9331454 0.20274241 0.93276066 0.018396851 0.0073105865
8000000000 0.019787999 0.010972358 0.28387731 0.91246945 0.27999759 0.90999979 0.024320742 -0.00060535647
8040000000 0.031172339 0.00069661264 0.35962629 0.87235832 0.36121383 0.87877226 0.028427441 0.0043460466
8080000000 0.026346192 -0.00071356265 0.4305355 0.83659905 0.43588987 0.83494735 0.041054703 0.0019316806
8120000000 0.021221083 -0.0026094853 0.51259142 0.79448211 0.50726557 0.7962777 0.037613504 -0.0014805171
8160000000 0.024700778 -0.019147813 0.57888788 0.73806155 0.58554935 0.74508768 0.03769188 -0.0027439888
8200000000 0.022227259 -0.028843917 0.63918376 0.6904428 0.64498276 0.68699837 0.039750133 -0.010223123
8240000000 0.032862287 -0.037121538 0.70575112 0.62935346 0.70057297 0.63043994 0.042234283 -0.022094995
8280000000 0.035633665 -0.039482147 0.75789154 0.56001127 0.76035571 0.56648558 0.033932343 -0.027075524
