!Agilent Technologies,E8361C,US49010278,A.09.20.08
!Agilent E8361C: A.09.20.08
!Date: Tuesday, December 15, 2015 15:46:14
!Correction: S11(Full 2 Port(1,2)) 
!S21(Full 2 Port(1,2)) 
!S12(Full 2 Port(1,2)) 
!S22(Full 2 Port(1,2)) 
!S2P File: Measurements: S11, S21, S12, S22:
# Hz S  RI   R 50
1000000000 -0.0015779587 0.0018306338 -0.81020981 -0.56983596 -0.81217569 -0.570503 -0.00068631378 0.0019224936
1040000000 0.0011849436 -0.00099680526 -0.86282194 -0.48659673 -0.86487508 -0.48666069 0.00025572613 0.00052352506
1080000000 -0.00061725418 -0.0036856674 -0.90688097 -0.39693615 -0.90818238 -0.39666566 0.0013066363 -0.001874506
1120000000 0.0021794953 -0.0027184091 -0.94137847 -0.30373865 -0.94360429 -0.30174884 0.0038563358 -0.0025144725
1160000000 0.0042030029 -0.0070871455 -0.96619296 -0.20499197 -0.96824026 -0.20379709 0.0029113914 -0.0070996745
1200000000 0.0029719614 -0.0098315114 -0.98167706 -0.10708821 -0.98435664 -0.10550973 0.0046024257 -0.0081100734
1240000000 0.0027087389 -0.010406939 -0.98738492 -0.0075819772 -0.99019438 -0.0054131746 0.0046459027 -0.010130919
1280000000 0.0011846339 -0.013393495 -0.98380542 0.092719965 -0.9857145 0.094578169 0.0035541002 -0.012698724
1320000000 -0.00022517571 -0.014931473 -0.96903765 0.19216232 -0.97091758 0.19304053 0.0017916493 -0.014945556
1360000000 -0.0013915092 -0.015482099 -0.94502717 0.28844643 -0.94670558 0.29000542 0.0021285187 -0.015976045
1400000000 -0.004762528 -0.018886592 -0.9114328 0.38200125 -0.91245925 0.38488567 -0.0019969332 -0.020398535
1440000000 -0.0063975048 -0.019820785 -0.86834323 0.47201398 -0.86873722 0.4737196 -0.004044075 -0.019422637
1480000000 -0.010131845 -0.01926697 -0.8160525 0.55697477 -0.81694257 0.55839115 -0.0065031541 -0.02264281
1520000000 -0.014741482 -0.019605396 -0.75487632 0.63555866 -0.75568759 0.63732827 -0.011335745 -0.023405816
1560000000 -0.014262707 -0.019905306 -0.69204623 0.70862424 -0.69370764 0.71051317 -0.01159916 -0.026034625
1600000000 -0.024640258 -0.010634699 -0.61673522 0.77410579 -0.61782634 0.77183747 -0.015506701 -0.018462716
1640000000 -0.020839721 -0.0130518 -0.53465509 0.82863367 -0.53460604 0.8286801 -0.016909668 -0.023841862
1680000000 -0.033477746 -0.014922307 -0.44937828 0.87614268 -0.44501427 0.87593299 -0.025509959 -0.017497655
1720000000 -0.031068908 -0.0070467764 -0.35512534 0.91422439 -0.35350308 0.91700888 -0.02545353 -0.019195324
1760000000 -0.033743598 -0.012198579 -0.25852093 0.94351524 -0.2570889 0.94890785 -0.032457199 -0.017342215
1800000000 -0.038631421 -0.0055547059 -0.15943471 0.96627396 -0.15858522 0.96964288 -0.034839261 -0.014447
1840000000 -0.034640025 -0.002277117 -0.057384599 0.97894269 -0.058568928 0.98233533 -0.035151724 -0.011170191
1880000000 -0.040223848 0.0010414204 0.040596977 0.97989899 0.041813385 0.98370707 -0.038255289 -0.010135461
1920000000 -0.034275409 0.0054302705 0.13949333 0.97440565 0.13988011 0.97571063 -0.039306358 -0.0017235752
1960000000 -0.036684748 0.0031678218 0.23675595 0.95667511 0.23755586 0.95821363 -0.038050387 -0.001270293
2000000000 -0.033646818 0.015405853 0.33106524 0.92811877 0.33157441 0.92889905 -0.040631734 0.0024412961
2040000000 -0.027565837 0.012425707 0.42099926 0.89184904 0.42459497 0.89270961 -0.037904643 0.0049048597
2080000000 -0.03179384 0.022222349 0.5094319 0.8463015 0.51073408 0.84576207 -0.037436903 0.012536101
2120000000 -0.016233418 0.024909705 0.58976662 0.78992134 0.5913527 0.79577065 -0.032979734 0.010461275
2160000000 -0.024908196 0.023035334 0.66432118 0.72897923 0.66586244 0.72968698 -0.032799061 0.017269744
2200000000 -0.017436575 0.037233829 0.73119116 0.65752798 0.7288177 0.65819919 -0.024047904 0.02087866
2240000000 -0.012260323 0.028988929 0.79059827 0.57839143 0.79354763 0.57736003 -0.0232067 0.023221923
2280000000 -0.014760517 0.033610947 0.84427106 0.49466947 0.84462696 0.48993042 -0.019004364 0.026642483
2320000000 -0.0059863478 0.034413438 0.889296 0.40170357 0.89229804 0.40072578 -0.015052537 0.025908999
2360000000 -0.0048537492 0.027337188 0.92570066 0.30809709 0.92847747 0.30819142 -0.013651104 0.026212845
2400000000 -0.0011650808 0.028682547 0.95234895 0.21246435 0.95731038 0.21297824 -0.010093414 0.025624681
2440000000 0.0033589583 0.022794263 0.97325665 0.11219109 0.974545 0.11258023 -0.0043589235 0.022015225
2480000000 0.0014885451 0.023644531 0.97925824 0.015362771 0.98338538 0.014932526 -0.0048200833 0.020484932
2520000000 0.0053495751 0.018008765 0.97955322 -0.083131671 0.98206198 -0.083698787 -0.00010035436 0.01971817
2560000000 -0.0016893347 0.012633658 0.96750098 -0.18103707 0.96897864 -0.18160346 -0.00080018956 0.014563015
2600000000 0.0079033412 0.0093742907 0.94366425 -0.27599558 0.94612777 -0.27625856 0.0011825381 0.012184039
2640000000 0.0025188758 -0.0021271342 0.91199464 -0.36806339 0.91316164 -0.37121177 -0.0011002418 0.0065728286
2680000000 0.0082567316 0.00078855694 0.86931175 -0.45631996 0.87197238 -0.46002567 0.0020321696 0.0041982536
2720000000 0.0096146027 -0.0073829722 0.819058 -0.5418061 0.82185972 -0.54305005 -0.00027254008 -0.003575823
2760000000 0.0031426998 -0.0036791258 0.76029521 -0.6197021 0.76145941 -0.62127596 -0.0021615759 -0.0040481361
2800000000 0.0019651798 -0.0066278637 0.69198608 -0.69033629 0.69411969 -0.6904152 -0.0026489298 -0.012328049
2840000000 -0.0030764497 -0.011615758 0.61684906 -0.75514317 0.61701798 -0.75728381 -0.00517591 -0.01052778
2880000000 -0.0060440972 -0.0055220169 0.5360018 -0.81397414 0.53423631 -0.81697583 -0.005765303 -0.012528376
2920000000 -0.0084039811 -0.0079958467 0.44649592 -0.86482573 0.44769022 -0.86811495 -0.010950345 -0.012671148
2960000000 -0.021257542 -0.0059420196 0.35500139 -0.9070704 0.35692671 -0.90912664 -0.016752847 -0.01108467
3000000000 -0.023248065 -0.0071479855 0.26693568 -0.94208187 0.26596016 -0.94202447 -0.023909172 -0.010278594
3040000000 -0.028780565 -0.0082499655 0.16914283 -0.96293569 0.17039181 -0.96440482 -0.028821159 -0.011104905
3080000000 -0.041900326 0.029779484 0.062119476 -0.97675943 0.055731688 -0.98071861 -0.02622688 0.0032706233
3120000000 -0.041072655 0.003973288 -0.037399903 -0.98449808 -0.035350524 -0.9863233 -0.034092203 -0.0017566977
3160000000 -0.066224456 0.016885288 -0.1350939 -0.97400248 -0.13363594 -0.98498631 -0.044187695 0.013027043
3200000000 -0.044487413 0.015221801 -0.22372188 -0.96456987 -0.22542493 -0.96151358 -0.045676831 0.0039612083
3240000000 -0.066459775 0.0048275106 -0.321576 -0.9384796 -0.31156936 -0.93585926 -0.061420541 0.01465618
3280000000 -0.044061847 0.021075787 -0.40659809 -0.8992067 -0.41053304 -0.90074414 -0.046103042 0.014372766
3320000000 -0.045738209 0.0076200757 -0.48712426 -0.85631841 -0.49111745 -0.8449195 -0.061274834 0.011369701
3360000000 -0.047932513 0.039052501 -0.5656333 -0.79610199 -0.5653758 -0.7944898 -0.051113483 0.029437985
3400000000 -0.027275832 0.032053772 -0.63850921 -0.723885 -0.64515454 -0.72933942 -0.048117835 0.024192732
3440000000 -0.04272256 0.032127209 -0.70557636 -0.64518255 -0.71097034 -0.6466766 -0.04716184 0.036551345
3480000000 -0.025246589 0.055892136 -0.77483469 -0.56404054 -0.77398384 -0.56704724 -0.044026833 0.045339268
3520000000 -0.0078276033 0.0380142 -0.83230829 -0.48132798 -0.83482397 -0.48216799 -0.035460889 0.043283802
3560000000 -0.011794386 0.064332671 -0.88116819 -0.39473486 -0.88577455 -0.3945193 -0.03324293 0.05129201
3600000000 0.0084529957 0.069264084 -0.91640896 -0.30449179 -0.92416549 -0.30438846 -0.020222582 0.053666476
3640000000 -0.0040868488 0.074830621 -0.94482803 -0.2095724 -0.94720519 -0.21190633 -0.017992256 0.064588517
3680000000 0.011947089 0.07495752 -0.96830082 -0.11194845 -0.97088927 -0.11838967 -0.0063997717 0.064929329
3720000000 0.001528805 0.06825456 -0.97805792 -0.015449736 -0.98039341 -0.012393574 -0.010586153 0.068248875
3760000000 0.019364256 0.079630479 -0.97820187 0.074354246 -0.97568059 0.07867229 0.0059165619 0.07081522
3800000000 0.022227777 0.058958992 -0.97186005 0.17003971 -0.97447097 0.1686327 0.0083534764 0.062098071
3840000000 0.010006213 0.061426468 -0.94393086 0.2572453 -0.94831508 0.26475126 0.0078704683 0.070545599
3880000000 0.035409834 0.059065934 -0.91233999 0.34417477 -0.91031939 0.34729522 0.016897194 0.06089868
3920000000 0.029432556 0.043945562 -0.86464608 0.43766347 -0.86964637 0.43378541 0.020810219 0.061028294
3960000000 0.024695216 0.048970267 -0.80953461 0.52064723 -0.81258136 0.52525562 0.024449075 0.051386155
4000000000 0.042616304 0.034981765 -0.75397956 0.60993415 -0.7559222 0.61146855 0.031661507 0.044399064
4040000000 0.043715332 0.02901962 -0.68906647 0.68274558 -0.68923587 0.68597209 0.034889415 0.037579466
4080000000 0.045519408 0.011835671 -0.60799211 0.74120796 -0.60552067 0.74543279 0.031999107 0.033595521
4120000000 0.0447951 -0.0033508323 -0.52584326 0.79972202 -0.52569675 0.80724037 0.033597138 0.02162654
4160000000 0.054591481 0.0082760053 -0.44078702 0.85475135 -0.44466463 0.85884243 0.037487097 0.015312112
4200000000 0.054958455 -0.0051594321 -0.34920472 0.90252548 -0.35709235 0.90781951 0.03396618 0.006282459
4240000000 0.041353676 0.0082506724 -0.26135999 0.93540144 -0.2603277 0.93861389 0.03905971 0.011108303
4280000000 0.044107467 -0.0024762647 -0.17049158 0.96449149 -0.17197806 0.96040642 0.03576006 -0.0029190157
4320000000 0.023073385 -0.0018768738 -0.073548317 0.97777265 -0.074183092 0.98228586 0.024775339 0.0027768137
4360000000 0.029744217 0.0043383674 0.01531874 0.97860414 0.025171323 0.98073721 0.029862396 -0.00066682126
4400000000 0.016915476 -0.014173095 0.10977991 0.97345877 0.11290987 0.97186917 0.013979346 -0.0080408175
4440000000 0.0070629558 -0.00062416453 0.20910966 0.9513638 0.20676772 0.95732224 0.016186887 -0.0079203015
4480000000 0.013553958 0.00086345343 0.29860348 0.92054123 0.30261275 0.92242843 0.0079024555 -0.0083828429
4520000000 -7.3010058e-005 -0.0055240472 0.40080222 0.88264406 0.40166092 0.88387126 0.00099936326 -0.0050834976
4560000000 -0.0062932582 -0.0036870807 0.48859045 0.83754975 0.48918325 0.83783484 -0.0033644917 -0.0024104333
4600000000 -0.010556168 -0.004510392 0.56198525 0.77411586 0.5646919 0.77497023 -0.010111663 0.0089797992
4640000000 -0.026818478 0.015487188 0.63811123 0.71007317 0.64365447 0.71254021 -0.013688226 0.011489966
4680000000 -0.019423177 0.0046147658 0.71182609 0.64102519 0.71375495 0.64128119 -0.018144896 0.0082469461
4720000000 -0.03750845 0.010444117 0.77924496 0.55952978 0.78117424 0.56388921 -0.023018362 0.020171773
4760000000 -0.014275277 0.018457757 0.83578986 0.48415455 0.83783633 0.4835363 -0.013811611 0.022796011
4800000000 -0.019568432 0.011938049 0.88376021 0.39772096 0.88608152 0.39488184 -0.021519668 0.02917794
4840000000 -0.0077530639 0.032454401 0.92168963 0.30871037 0.92264688 0.31026885 -0.015826203 0.038026385
4880000000 0.0028581349 0.030415723 0.94774055 0.22062218 0.95249724 0.22002156 -0.015557503 0.03961914
4920000000 -0.00080412783 0.053666931 0.96684927 0.12428998 0.96747428 0.1235263 -0.0048143109 0.047302075
4960000000 0.013358994 0.056836732 0.97404248 0.030984771 0.97211242 0.035614159 -0.0085832188 0.043446653
5000000000 0.0049517057 0.060484793 0.96128911 -0.07024496 0.9626441 -0.069605328 0.0014167104 0.058354553
5040000000 0.01363939 0.060898617 0.9493773 -0.16705234 0.95057142 -0.16741978 0.0074153766 0.060795899
5080000000 0.031962495 0.07011006 0.92431217 -0.24968243 0.92894787 -0.25029618 0.014736087 0.064086616
5120000000 0.025937431 0.072411492 0.88982248 -0.34646297 0.89008325 -0.3477025 0.019701943 0.066023938
5160000000 0.031177605 0.072346635 0.84620249 -0.43661821 0.8474623 -0.43639809 0.032013722 0.065106645
5200000000 0.03348799 0.060406972 0.79410857 -0.52082562 0.79854739 -0.52466863 0.039228324 0.063579597
5240000000 0.049892843 0.058329321 0.73701441 -0.60222924 0.73927295 -0.60986578 0.050757181 0.06402947
5280000000 0.054798111 0.046133142 0.67090422 -0.67907661 0.67280155 -0.68062133 0.051386923 0.061313931
5320000000 0.064520746 0.054193333 0.59549618 -0.74549222 0.60198528 -0.748586 0.065047294 0.059181385
5360000000 0.074348323 0.029464766 0.52889091 -0.80938673 0.52832192 -0.81307447 0.063167199 0.042436872
5400000000 0.071818024 0.027901074 0.44464463 -0.8610363 0.44472358 -0.85892105 0.06682609 0.045393918
5440000000 0.086047836 0.023579277 0.36223334 -0.89742631 0.36093459 -0.90130454 0.081223525 0.028467709
5480000000 0.087207459 0.0090908241 0.27551246 -0.93042606 0.27091581 -0.93242466 0.071913891 0.018183714
5520000000 0.082708098 0.001899883 0.17967135 -0.95109957 0.17595814 -0.95157439 0.083665684 0.01580186
5560000000 0.088637114 -0.01601059 0.08272747 -0.96389312 0.084845334 -0.96593779 0.083072387 0.0034076839
5600000000 0.090001598 -0.014250366 -0.01259596 -0.96377188 -0.012693644 -0.96488655 0.08282733 -0.0032114212
5640000000 0.093042746 -0.018125482 -0.10676531 -0.95452523 -0.11157293 -0.95285589 0.075640522 -0.013118295
5680000000 0.074349619 -0.027072987 -0.20196998 -0.93615282 -0.20729308 -0.93514943 0.074199952 -0.018253576
5720000000 0.073278278 -0.01953499 -0.30124012 -0.90058261 -0.30345389 -0.90390801 0.07101398 -0.031694736
5760000000 0.066958144 -0.033364009 -0.3944076 -0.86328793 -0.39881504 -0.86964536 0.066675529 -0.041181155
5800000000 0.050966758 -0.03923931 -0.48687649 -0.82068259 -0.48892826 -0.81960976 0.061803229 -0.037325535
5840000000 0.051301241 -0.044885766 -0.57068014 -0.76786107 -0.56751388 -0.77138299 0.059094131 -0.04820307
5880000000 0.040061045 -0.054211546 -0.6455425 -0.71041399 -0.65031815 -0.71401131 0.042537991 -0.048270091
5920000000 0.037240744 -0.040359348 -0.7144171 -0.64114809 -0.72048861 -0.63930011 0.039358471 -0.045379512
5960000000 0.024964338 -0.047065847 -0.77846754 -0.56807935 -0.77627259 -0.56815636 0.030494189 -0.048662078
6000000000 0.020642744 -0.047475487 -0.82678396 -0.48895413 -0.8284955 -0.48960358 0.022012146 -0.046228733
6040000000 0.0139468 -0.046187334 -0.87170482 -0.40238753 -0.87388426 -0.40341038 0.012774218 -0.044501729
6080000000 0.0035792219 -0.054780431 -0.91398865 -0.31784868 -0.91301632 -0.31261498 0.0074534956 -0.031365398
6120000000 0.0072635571 -0.038416412 -0.93800598 -0.22532341 -0.93901509 -0.22267684 0.0040261243 -0.037864577
6160000000 0.0038604783 -0.038437266 -0.95121378 -0.12728207 -0.95296794 -0.12723438 -0.0085979095 -0.031361856
6200000000 -0.012843308 -0.031534228 -0.9569847 -0.029505944 -0.96150517 -0.028719304 -0.0055403798 -0.026780033
6240000000 -0.0057911705 -0.02105972 -0.95396066 0.068612993 -0.95347673 0.070288152 -0.0055091209 -0.019876251
6280000000 -0.0072537502 -0.027831582 -0.94028008 0.16728507 -0.94025689 0.16545245 -0.0078360578 -0.0118659
6320000000 -0.0014577833 -0.0098211197 -0.91746545 0.2605558 -0.92062408 0.2618567 -0.0082147997 -0.0028774485
6360000000 0.0084306151 -0.0035343131 -0.88161778 0.35351893 -0.88298422 0.3594887 -0.0071466817 0.005845435
6400000000 0.007666117 0.010670703 -0.83890474 0.44720194 -0.84038657 0.44436258 -0.0033204751 0.0058309981
6440000000 0.014701945 0.016861349 -0.78824806 0.5314213 -0.79785007 0.53375405 -0.0042340253 0.0093904706
6480000000 0.012224743 0.025514781 -0.73268205 0.61100996 -0.73235977 0.61674976 0.012653975 0.018240018
6520000000 0.018090498 0.02864645 -0.67117083 0.68523598 -0.67250961 0.6828016 0.017305044 0.013390642
6560000000 0.017645076 0.022825247 -0.5983851 0.74973118 -0.60230494 0.75181317 0.018776925 0.025001058
6600000000 0.023620253 0.021900123 -0.52304554 0.80376983 -0.51896626 0.80767453 0.036868833 0.024589578
6640000000 0.036551345 0.02262642 -0.4402746 0.8530001 -0.439033 0.85376352 0.03518723 0.024574809
6680000000 0.043733802 0.019669261 -0.35055956 0.89294314 -0.35148978 0.89425045 0.046343785 0.024045639
6720000000 0.039680157 0.020341773 -0.26017314 0.92150623 -0.26112303 0.92434752 0.049032424 0.02112639
6760000000 0.050173417 0.009421696 -0.16876118 0.94082528 -0.16749406 0.9400323 0.055557519 0.017144553
6800000000 0.048834875 -0.0043396619 -0.071953468 0.95059246 -0.070566058 0.9488802 0.063024975 0.0086128945
6840000000 0.062437747 -0.0093403896 0.024214773 0.94822389 0.024301538 0.94986594 0.065927349 0.0063544568
6880000000 0.06692154 -0.024972599 0.12328332 0.93486643 0.12931193 0.94258606 0.069087163 0.0016680841
6920000000 0.07427419 -0.02730679 0.21805587 0.9186697 0.22076422 0.91866565 0.068274111 -0.014731192
6960000000 0.077901937 -0.035376392 0.31466183 0.88914794 0.31086349 0.89373767 0.065548576 -0.017057629
7000000000 0.078072637 -0.037008312 0.40511769 0.8531611 0.40849698 0.85743493 0.07308954 -0.034885753
7040000000 0.076911055 -0.041847572 0.48951918 0.81084192 0.49145767 0.8086738 0.064964145 -0.046169885
7080000000 0.066994958 -0.053329997 0.57114738 0.75811589 0.56979042 0.75844246 0.066680603 -0.052428305
7120000000 0.060572073 -0.06000191 0.6419425 0.69857067 0.64811289 0.69995743 0.066901602 -0.067319728
7160000000 0.064115942 -0.06872531 0.71154314 0.63114536 0.71471572 0.63116515 0.059888981 -0.067950323
7200000000 0.055222802 -0.074002631 0.77373773 0.55691314 0.77280986 0.55911881 0.052209303 -0.075205244
7240000000 0.04515925 -0.066749103 0.82561964 0.47918481 0.82462001 0.48092383 0.043476429 -0.076938689
7280000000 0.032651935 -0.076004945 0.86752731 0.39484891 0.86788994 0.39292121 0.039374247 -0.088293232
7320000000 0.015729886 -0.077282853 0.89999318 0.30703261 0.90154552 0.30377439 0.026960468 -0.087398104
7360000000 0.011064542 -0.084705614 0.92438757 0.21312492 0.9243601 0.21367078 0.021428566 -0.085713655
7400000000 -0.0044605141 -0.089119054 0.93699485 0.11591798 0.94234997 0.11839841 0.012758424 -0.084283613
7440000000 -0.0075678681 -0.08938843 0.94366896 0.02038292 0.94649523 0.017764488 -0.004599988 -0.083553188
7480000000 -0.015492756 -0.088729203 0.94098055 -0.076570176 0.93843561 -0.077670924 -0.010223085 -0.078118585
7520000000 -0.021934113 -0.080759771 0.92784339 -0.17502703 0.93090373 -0.1754559 -0.017629396 -0.079862706
7560000000 -0.028284052 -0.071639396 0.90355963 -0.26859131 0.90850395 -0.27465194 -0.025444519 -0.071940057
7600000000 -0.038281735 -0.068540454 0.87442416 -0.3610214 0.87465495 -0.36313024 -0.033500236 -0.067165427
7640000000 -0.043492287 -0.055453464 0.83272928 -0.45233583 0.83915842 -0.45065001 -0.039214931 -0.054285038
7680000000 -0.03791244 -0.059396323 0.78502262 -0.53515416 0.78897053 -0.53928077 -0.042243455 -0.056271967
7720000000 -0.046055377 -0.043109585 0.72997898 -0.60704958 0.7315675 -0.60918766 -0.044236463 -0.044916861
7760000000 -0.045555171 -0.0325724 0.66596675 -0.67888886 0.666789 -0.6788699 -0.044870537 -0.036439687
7800000000 -0.045611095 -0.023857746 0.59673959 -0.74383825 0.59571546 -0.74436998 -0.046619035 -0.030486623
7840000000 -0.042000569 -0.01913882 0.5185799 -0.8025316 0.51814443 -0.8012569 -0.038434647 -0.022635169
7880000000 -0.039249904 -0.0071408106 0.432071 -0.85039914 0.43306333 -0.8523246 -0.038511429 -0.019206377
7920000000 -0.027828546 0.00088134338 0.34550726 -0.88495338 0.34428763 -0.88871145 -0.032394204 -0.0099614616
7960000000 -0.026721206 0.0067739645 0.25588393 -0.916421 0.25466478 -0.91634172 -0.022748251 -0.0031585598
8000000000 -0.026507117 0.0090642553 0.15666661 -0.93384916 0.15792011 -0.93598044 -0.01656471 -0.0035323743
8040000000 -0.012606467 0.014731765 0.058418341 -0.93992549 0.056569379 -0.94335508 -0.016495951 0.0046254122
8080000000 -0.0081093423 0.014195187 -0.040182021 -0.94108415 -0.040669024 -0.94160992 -0.0024902162 0.0068208654
8120000000 -0.010383818 0.011529747 -0.14140294 -0.93476927 -0.14091274 -0.93848675 0.00033849009 0.0048811175
8160000000 0.004107398 0.0055755689 -0.23594266 -0.9151265 -0.2401298 -0.91954237 0.0054439995 0.0061964844
8200000000 0.0097745042 -0.0058375197 -0.32575732 -0.88943118 -0.32834294 -0.8904897 0.012630004 0.0037546898
8240000000 0.022234261 -0.0062032528 -0.41912991 -0.85199207 -0.41710323 -0.85412514 0.022025416 0.0023127778
8280000000 0.030205796 -0.010919685 -0.50313014 -0.80326355 -0.50460637 -0.80688572 0.017447302 -0.006374083
