!Agilent Technologies,E8361C,US49010278,A.09.20.08
!Agilent E8361C: A.09.20.08
!Date: Tuesday, December 15, 2015 15:42:11
!Correction: S11(Full 2 Port(1,2)) 
!S21(Full 2 Port(1,2)) 
!S12(Full 2 Port(1,2)) 
!S22(Full 2 Port(1,2)) 
!S2P File: Measurements: S11, S21, S12, S22:
# Hz S  RI   R 50
1000000000 0.00037065902 -0.00099764427 -0.92151225 -0.36334276 -0.92333233 -0.36319581 0.0035930409 -0.00091651641
1040000000 0.0019836735 -0.0060109813 -0.95570743 -0.26071343 -0.95754218 -0.26036483 0.0041435035 -0.0034266319
1080000000 -0.0016461805 -0.0071069798 -0.97806591 -0.15475404 -0.97957456 -0.1534135 0.0041112439 -0.0054029115
1120000000 0.0014189247 -0.0076159583 -0.98881155 -0.046181336 -0.99010628 -0.043774918 0.0057615531 -0.0076783295
1160000000 0.00064119039 -0.013856431 -0.98514473 0.063786775 -0.98705488 0.06603425 0.002824578 -0.012439221
1200000000 -0.0031256585 -0.014143351 -0.97126031 0.17201346 -0.97353375 0.17497441 0.003227809 -0.013663577
1240000000 -0.0027028348 -0.015527359 -0.94594926 0.27861211 -0.94757599 0.28105631 0.0025416005 -0.017160114
1280000000 -0.0069207828 -0.017859772 -0.90986055 0.38241497 -0.9105733 0.38436747 -0.00088112918 -0.019217467
1320000000 -0.0084632821 -0.016859332 -0.8611477 0.48090959 -0.86250871 0.48269305 -0.0023904303 -0.020138236
1360000000 -0.010948388 -0.017881269 -0.80363703 0.57289934 -0.80411178 0.57494581 -0.0043514287 -0.02176456
1400000000 -0.015346965 -0.017734902 -0.73597986 0.65804845 -0.73616183 0.66170758 -0.0095729157 -0.02332367
1440000000 -0.017144429 -0.018389596 -0.65883243 0.73545444 -0.65885419 0.7368415 -0.011367337 -0.022082139
1480000000 -0.020701855 -0.014537159 -0.57378322 0.80316871 -0.5738681 0.80492443 -0.015414614 -0.022714967
1520000000 -0.024198595 -0.012502078 -0.48232237 0.86024868 -0.48195612 0.86244565 -0.01994713 -0.021846242
1560000000 -0.025684088 -0.012842792 -0.38743559 0.91227657 -0.38865012 0.91424733 -0.022380082 -0.022670461
1600000000 -0.024436805 0.001445604 -0.2851904 0.94963676 -0.2874245 0.94697946 -0.019699732 -0.015531804
1640000000 -0.026394947 -0.0043738433 -0.18063676 0.97169775 -0.18001413 0.97098368 -0.027098158 -0.017680654
1680000000 -0.035501968 0.0070693502 -0.075989485 0.9849878 -0.071149997 0.98163903 -0.027814988 -0.0070671993
1720000000 -0.028563328 0.0065245349 0.034571148 0.98355454 0.037163027 0.98505396 -0.030307829 -0.010952781
1760000000 -0.035801265 0.0075414972 0.14168392 0.96956164 0.14611523 0.97327518 -0.035245601 -0.0026972056
1800000000 -0.030348662 0.014714822 0.24942315 0.94692153 0.25243548 0.9485774 -0.032006711 -0.00039237324
1840000000 -0.028527504 0.012014575 0.35716707 0.90837681 0.35784438 0.91189963 -0.03357375 0.00095015159
1880000000 -0.027993232 0.022113055 0.45507139 0.8629241 0.45933247 0.86588401 -0.03243215 0.006707801
1920000000 -0.02122198 0.016753772 0.55210245 0.80965948 0.55343157 0.81093776 -0.028605154 0.0096775377
1960000000 -0.026713103 0.02016953 0.6403572 0.74456614 0.64106131 0.7454899 -0.029024847 0.012051744
2000000000 -0.012372426 0.022022333 0.71891356 0.67125517 0.72007334 0.67146319 -0.026675479 0.013413367
2040000000 -0.015086768 0.016696481 0.7891106 0.59032583 0.79300022 0.58945024 -0.025044419 0.013502002
2080000000 -0.0058753509 0.026755663 0.85103452 0.50190669 0.85228217 0.50127244 -0.017970024 0.017695658
2120000000 0.0017350354 0.01245766 0.89946163 0.40510014 0.90401983 0.40958178 -0.017776655 0.01256286
2160000000 -0.0031422412 0.02144468 0.93850195 0.3076607 0.94034338 0.30766079 -0.012813515 0.017480798
2200000000 0.013359338 0.017556261 0.96621358 0.20360136 0.96371967 0.20604897 -0.0059515438 0.010356068
2240000000 0.0056963102 0.013072703 0.97896224 0.098057583 0.98001289 0.095850088 -0.0048745079 0.013370289
2280000000 0.011326315 0.015928948 0.98319668 -0.009128863 0.97974879 -0.013599847 0.00099488464 0.0097103547
2320000000 0.011123626 0.0063469238 0.97176415 -0.11966895 0.9729588 -0.12236182 -0.00080917764 0.0054163919
2360000000 0.0071393899 0.0064269449 0.94993794 -0.22640996 0.95167011 -0.22850314 0.0011666106 0.0060328809
2400000000 0.0079598492 -0.0021980947 0.9167527 -0.33067346 0.91982192 -0.33328849 5.4619224e-005 -0.00078029506
2440000000 0.0011278215 -0.0048355539 0.87186253 -0.43448293 0.87347531 -0.43534103 -0.0025124033 -0.0041281139
2480000000 0.0051912065 -0.0039250753 0.81832439 -0.52879351 0.82118857 -0.53198576 -0.0018219223 -0.0055565801
2520000000 -0.0056058364 -0.01013473 0.75710142 -0.6188789 0.75831276 -0.62098062 -0.0056910515 -0.0093504926
2560000000 -0.0092495382 -0.0022662345 0.68595046 -0.70151836 0.68635017 -0.70218259 -0.0088200336 -0.0090891207
2600000000 -0.012287187 -0.015510947 0.60480088 -0.77258623 0.60657704 -0.7746048 -0.013382532 -0.013534374
2640000000 -0.025614189 -0.010762152 0.51823968 -0.83330518 0.51762062 -0.83715969 -0.020614913 -0.012425973
2680000000 -0.020429282 -0.016991006 0.42386359 -0.8848238 0.42435166 -0.88953149 -0.021394949 -0.016115358
2720000000 -0.032385878 -0.016908081 0.32353818 -0.92676961 0.32615566 -0.93038869 -0.029683914 -0.01417618
2760000000 -0.029286612 -0.011095191 0.22168702 -0.95635384 0.22254586 -0.9583503 -0.031601824 -0.013568247
2800000000 -0.035923202 -0.010573777 0.11609737 -0.97327763 0.11729646 -0.97441185 -0.040892921 -0.013344229
2840000000 -0.040142674 -0.00075888494 0.010477584 -0.97834134 0.0092855291 -0.97956753 -0.039946843 -0.0089906175
2880000000 -0.03622552 -0.00046880168 -0.097466506 -0.97254324 -0.10148798 -0.97245854 -0.043901429 -0.0087923296
2920000000 -0.041231781 0.0074942168 -0.20451598 -0.95233047 -0.206815 -0.95409346 -0.045685932 -9.4163283e-007
2960000000 -0.037237909 0.021151256 -0.30948749 -0.92132837 -0.31074178 -0.92417568 -0.045050714 0.0067761918
3000000000 -0.042982653 0.023019522 -0.41329828 -0.88551033 -0.41416514 -0.88462007 -0.047979299 0.0149052
3040000000 -0.043640848 0.029544327 -0.50823957 -0.83294684 -0.5084784 -0.83413106 -0.050257642 0.020350304
3080000000 -0.010160333 0.04322242 -0.59542477 -0.75715548 -0.60305023 -0.75635231 -0.040472921 0.023059657
3120000000 -0.033965141 0.053203017 -0.68208522 -0.68873876 -0.6816026 -0.69308573 -0.040926524 0.031043399
3160000000 -0.01642853 0.065666564 -0.75757587 -0.60682458 -0.76476592 -0.61742562 -0.031177433 0.037586726
3200000000 -0.027809113 0.056370739 -0.82240945 -0.5303489 -0.82266104 -0.52747422 -0.037344258 0.04739048
3240000000 -0.024993844 0.079244584 -0.88079053 -0.43928471 -0.87251884 -0.44439191 -0.025625678 0.059128173
3280000000 -0.019648252 0.056948319 -0.92206663 -0.340238 -0.92619574 -0.3397851 -0.031160226 0.050780095
3320000000 -0.02519504 0.064810313 -0.9528054 -0.24711291 -0.94846106 -0.23786864 -0.02712905 0.066670686
3360000000 0.0038124998 0.056181408 -0.97642511 -0.14220221 -0.97389042 -0.14179248 -0.014757559 0.054344263
3400000000 -0.0018858651 0.050552834 -0.97569835 -0.033428632 -0.98368454 -0.032202784 -0.012802667 0.057891976
3440000000 0.0084553761 0.063230097 -0.97061259 0.064319856 -0.97236973 0.068124793 -0.0014431052 0.056015234
3480000000 0.014236635 0.043587968 -0.95483118 0.17754765 -0.95149618 0.17570661 0.0023281779 0.056534726
3520000000 0.0075573283 0.034850813 -0.9234398 0.28020266 -0.92231941 0.28167149 0.0067803841 0.04927
3560000000 0.029089754 0.024925826 -0.88516164 0.38246465 -0.88664418 0.38784024 0.0081617003 0.046410199
3600000000 0.031111397 0.013327053 -0.82969522 0.47986346 -0.83322865 0.48708552 0.012529891 0.03957656
3640000000 0.045289654 0.018540474 -0.77169722 0.56945699 -0.77494907 0.57010132 0.021610074 0.029848849
3680000000 0.037446979 0.011606134 -0.70184988 0.66002208 -0.70998478 0.65878332 0.019876536 0.027333742
3720000000 0.041405845 0.016830157 -0.62423676 0.73497969 -0.62441289 0.74014217 0.025581777 0.026204199
3760000000 0.035688072 0.0017819059 -0.54392701 0.80142963 -0.53930771 0.80309761 0.022627279 0.015556999
3800000000 0.026514733 0.0090413075 -0.45381922 0.86533368 -0.45750764 0.86698222 0.016633291 0.01354699
3840000000 0.024452386 0.0040526218 -0.36014843 0.904293 -0.35778052 0.91315454 0.01886359 0.0053044767
3880000000 0.015991267 -0.0049552573 -0.26255587 0.94050837 -0.25990433 0.94222009 0.014415781 0.0050366009
3920000000 0.015929664 -0.00028483552 -0.15436253 0.9640547 -0.16044442 0.96613973 0.016310666 -0.0048453156
3960000000 0.011540182 0.0035379366 -0.049393538 0.97479457 -0.047980662 0.97870654 0.0025658344 0.0018427242
4000000000 -0.00056545902 -0.0065002968 0.05906833 0.96868873 0.060089167 0.97110558 -0.00054754427 -0.0033356627
4040000000 -0.0060587563 -0.0036412869 0.1657104 0.95611024 0.1682684 0.95814484 -0.0066965311 -0.0023586431
4080000000 -0.024614327 0.0062809363 0.26179388 0.93756694 0.26722828 0.93462217 -0.0055536944 0.0041758032
4120000000 -0.031372156 0.0012196467 0.36169952 0.89548188 0.36929971 0.8950333 -0.012516751 0.0005778835
4160000000 -0.029893558 -0.0032843302 0.46002778 0.84422743 0.46174535 0.84640086 -0.022143515 0.0098590953
4200000000 -0.029851541 -0.00020104636 0.55459374 0.78284669 0.55598605 0.7919606 -0.021698344 0.016589155
4240000000 -0.020642692 0.0084339492 0.64003766 0.71490991 0.64447278 0.71539009 -0.025926286 0.012608864
4280000000 -0.020917749 0.021458592 0.71879166 0.64146781 0.71646142 0.64157438 -0.032119364 0.024619522
4320000000 -0.016364403 0.028696284 0.78770119 0.55640501 0.7915644 0.56102169 -0.027958991 0.03145802
4360000000 -0.016127793 0.038874239 0.84328228 0.46904728 0.85103118 0.46335343 -0.028040629 0.034485482
4400000000 -0.015939422 0.045369782 0.89139104 0.37480342 0.89344752 0.37284398 -0.027490716 0.042433776
4440000000 -0.0083427913 0.050556801 0.92886966 0.2690357 0.93348539 0.27438316 -0.029113878 0.04761149
4480000000 0.003743117 0.05001995 0.95460153 0.16886587 0.95903063 0.16757411 -0.011328701 0.053503741
4520000000 0.00062659924 0.059145026 0.96453249 0.066165484 0.96618283 0.065691248 -0.0092325518 0.05896258
4560000000 0.0083826007 0.062906191 0.96585399 -0.042029686 0.9663415 -0.04222656 -0.0017372541 0.061029349
4600000000 0.01418925 0.065847248 0.96004736 -0.14629012 0.9620164 -0.14986911 0.014826686 0.058542598
4640000000 0.031922266 0.072375894 0.93599391 -0.24562806 0.9362964 -0.25025713 0.015758552 0.0697859
4680000000 0.035071466 0.067254819 0.90555763 -0.34919456 0.90308678 -0.34798768 0.02561073 0.069709457
4720000000 0.039566293 0.07599543 0.85109478 -0.44509462 0.85556442 -0.44550991 0.030190421 0.064109117
4760000000 0.044100258 0.063015588 0.79750282 -0.53421932 0.79270989 -0.53835797 0.035373468 0.062463813
4800000000 0.04044047 0.060942829 0.73334914 -0.62194592 0.72861362 -0.62230879 0.048771124 0.055400744
4840000000 0.045080401 0.04799635 0.64890331 -0.69778484 0.65395522 -0.70268089 0.055798598 0.053520441
4880000000 0.049973045 0.031692736 0.57203394 -0.76486599 0.57085323 -0.77281982 0.061570954 0.048198462
4920000000 0.06277398 0.019384801 0.4815847 -0.82852912 0.48284617 -0.82859784 0.058550861 0.043291725
4960000000 0.070784986 0.0058207526 0.3833006 -0.8777588 0.38960895 -0.8774882 0.064461909 0.043637272
5000000000 0.073174439 0.0090715066 0.29429764 -0.91640109 0.29437196 -0.91814744 0.065078124 0.024926174
5040000000 0.070265062 0.0031179094 0.19033523 -0.94400716 0.19040655 -0.94521517 0.066359766 0.016355645
5080000000 0.068206392 -0.022988778 0.082645014 -0.96148521 0.083416641 -0.9663623 0.065270342 0.0049521653
5120000000 0.066022076 -0.022520479 -0.022836594 -0.97073549 -0.021614864 -0.96989048 0.059957534 0.0018764638
5160000000 0.074648052 -0.022952046 -0.13130789 -0.9576019 -0.12962517 -0.95919675 0.05630165 -0.0098676188
5200000000 0.057369169 -0.02091147 -0.23292424 -0.93815714 -0.23620348 -0.94017386 0.046204116 -0.013213542
5240000000 0.050337624 -0.022400927 -0.33228725 -0.90877831 -0.33811501 -0.90961659 0.046413317 -0.022364279
5280000000 0.035569832 -0.028218219 -0.43354213 -0.86603475 -0.43231884 -0.86662704 0.042529441 -0.026587384
5320000000 0.034828007 -0.028312089 -0.52343035 -0.80812162 -0.52328271 -0.81444031 0.034342077 -0.025022943
5360000000 0.023266364 -0.02650656 -0.60375094 -0.74646252 -0.60672516 -0.74306643 0.032024305 -0.020950317
5400000000 0.014659322 -0.023537666 -0.68614084 -0.66993588 -0.68093079 -0.66938436 0.022959759 -0.02414402
5440000000 0.015125064 -0.01818826 -0.74987453 -0.58437175 -0.75882828 -0.58518285 0.013319354 -0.017335681
5480000000 0.0036615306 -0.022377251 -0.81616426 -0.49724582 -0.81914884 -0.49178734 0.010247104 -0.01164266
5520000000 -0.0006912445 -0.0013352729 -0.86969072 -0.40035507 -0.86993092 -0.3997702 0.0032951282 -0.012192316
5560000000 -0.0094821118 -0.0016720593 -0.90773845 -0.29798505 -0.91309911 -0.30341974 -0.00065523625 -0.0067252778
5600000000 -0.014154728 0.00032588505 -0.93808246 -0.19969913 -0.94125718 -0.19783396 -0.0045681545 0.002463642
5640000000 -0.0081832446 -0.0023300336 -0.95660198 -0.093265668 -0.95413637 -0.090391681 0.0017654818 0.0085105645
5680000000 -0.008808692 0.012929528 -0.96041614 0.014195066 -0.96279186 0.015873047 -0.0068638837 0.014999786
5720000000 0.0045289542 0.011664162 -0.95617557 0.11963759 -0.95997328 0.12121737 -0.0023639917 0.023110637
5760000000 0.0067407787 0.011786072 -0.93980432 0.22172752 -0.94443434 0.22457254 -0.0038096549 0.023445021
5800000000 0.008608629 0.028877644 -0.91232264 0.32393774 -0.91004604 0.32538807 0.0019376307 0.026281072
5840000000 0.023376022 0.027046539 -0.86883181 0.41975889 -0.87029988 0.41605616 0.0071237432 0.031580176
5880000000 0.022535767 0.032848395 -0.81499189 0.50668502 -0.81690872 0.51276052 0.019481137 0.036561273
5920000000 0.035262745 0.025513129 -0.75617331 0.59272456 -0.75109881 0.59831905 0.023869315 0.03664159
5960000000 0.040173408 0.027955821 -0.68177778 0.6734699 -0.68023258 0.67028034 0.030784063 0.039010964
6000000000 0.048020713 0.030578578 -0.59625876 0.74817801 -0.59654719 0.74925882 0.04201135 0.039381642
6040000000 0.053849235 0.027489096 -0.50906801 0.80866075 -0.51048869 0.81088561 0.049246717 0.037669547
6080000000 0.055495717 0.031297788 -0.41619113 0.85233557 -0.40905538 0.85051894 0.057795316 0.023659943
6120000000 0.073540919 0.018024076 -0.31077304 0.89505643 -0.31231096 0.89752364 0.06498003 0.023219312
6160000000 0.067142464 0.0073161349 -0.20849892 0.92523086 -0.20722099 0.93040031 0.075361565 0.01722002
6200000000 0.083807662 0.010748413 -0.10521511 0.94378811 -0.10353939 0.94725555 0.078219973 0.010180071
6240000000 0.079175271 -0.0090429643 0.00087337999 0.95544642 -0.00029931508 0.95617449 0.078821003 0.0029262642
6280000000 0.075653784 -0.0039460519 0.10833289 0.9485296 0.10658157 0.95134449 0.085813016 -0.0033871566
6320000000 0.078008652 -0.030084051 0.20699847 0.93392861 0.20912994 0.93587935 0.083631128 -0.019207321
6360000000 0.05774739 -0.033457968 0.30839366 0.91004777 0.31312978 0.90970302 0.084268615 -0.019843563
6400000000 0.069116727 -0.046067726 0.40589538 0.87023067 0.40306666 0.87109232 0.081408419 -0.030170131
6440000000 0.05484717 -0.066330604 0.49486095 0.81976086 0.49689889 0.82759511 0.074547693 -0.036719058
6480000000 0.053934518 -0.061615299 0.57676792 0.7606371 0.58347642 0.75975698 0.067415774 -0.042838186
6520000000 0.053172961 -0.076330006 0.65593904 0.69147867 0.65134704 0.69068432 0.057426818 -0.048669413
6560000000 0.042657237 -0.072412744 0.72938424 0.61061782 0.73027146 0.61511964 0.052411821 -0.057697084
6600000000 0.041692082 -0.070482008 0.78318876 0.52414358 0.7898953 0.51826411 0.037082102 -0.064476267
6640000000 0.018428955 -0.076574132 0.83975172 0.43251613 0.83903736 0.4291546 0.030805478 -0.064527147
6680000000 0.013568349 -0.067165218 0.88520825 0.32580358 0.88905811 0.33015352 0.025660804 -0.068004601
6720000000 0.0081464313 -0.081789091 0.91185534 0.22305664 0.91989553 0.22357307 0.016112937 -0.068469495
6760000000 -0.0073181977 -0.064065881 0.9450537 0.12139928 0.94342464 0.11998763 0.0097542908 -0.059068918
6800000000 0.0067082038 -0.056996584 0.95427442 0.011972789 0.95363903 0.01463191 0.0053837732 -0.061659746
6840000000 -0.01978974 -0.050204378 0.94981909 -0.089263342 0.95504385 -0.090355195 -0.0066954843 -0.054404832
6880000000 -0.01893219 -0.026652893 0.93810749 -0.19275765 0.94329661 -0.1995035 -0.0043964903 -0.049962524
6920000000 -0.02734109 -0.032487687 0.91229755 -0.29541457 0.91150939 -0.29630145 -0.0096108383 -0.039937906
6960000000 -0.036743995 -0.01940899 0.87612134 -0.39449435 0.88022405 -0.39167708 -0.0083991187 -0.035230309
7000000000 -0.030216042 -0.025993042 0.82847911 -0.48704299 0.830661 -0.48987642 -0.017815679 -0.023518868
7040000000 -0.03379786 -0.01934208 0.77062017 -0.56918395 0.76675242 -0.57162452 -0.01244545 -0.012372124
7080000000 -0.013289251 -0.0086333631 0.70341074 -0.65047216 0.70173025 -0.64889741 -0.012964461 -0.014807795
7120000000 -0.01506646 -0.0076740673 0.61763096 -0.71715206 0.61804032 -0.72369736 -0.018826807 -0.003146677
7160000000 -0.017812101 0.011872917 0.53074259 -0.77958661 0.52862096 -0.78413355 -0.0042650062 -0.001130634
7200000000 -0.0087507153 0.004222766 0.43938056 -0.83761114 0.43853763 -0.83573532 -0.00022285114 -0.002699557
7240000000 -0.01239218 -0.0018678847 0.33449906 -0.88203973 0.33900481 -0.88335294 0.0028924048 0.0039477851
7280000000 0.013757015 0.0016630673 0.23381899 -0.9118169 0.23007786 -0.91633451 0.012246862 0.0086362837
7320000000 0.021707824 -0.0068706009 0.12976472 -0.93710071 0.12615308 -0.93694496 0.013434307 0.002619836
7360000000 0.032845393 0.0073002367 0.020801051 -0.94742912 0.024806641 -0.9488855 0.019228518 -0.00054166798
7400000000 0.044099614 0.0019917923 -0.082553811 -0.94521797 -0.082762659 -0.95223302 0.023950761 -0.0080714421
7440000000 0.039734587 0.0046687438 -0.18616575 -0.93129176 -0.19050764 -0.93206263 0.039124269 -0.01319816
7480000000 0.048452709 -0.0049805287 -0.28562859 -0.90947747 -0.2849355 -0.90744328 0.03852598 -0.02275854
7520000000 0.043005303 -0.013206054 -0.38457695 -0.87396228 -0.3861151 -0.87686479 0.044242814 -0.017411403
7560000000 0.05184808 -0.019274125 -0.47477001 -0.82363296 -0.48053074 -0.82442433 0.046617068 -0.030468458
7600000000 0.052457169 -0.032446414 -0.55919641 -0.76856744 -0.56092739 -0.76666361 0.042975776 -0.037094843
7640000000 0.044459287 -0.03602232 -0.63935739 -0.6985786 -0.63902038 -0.70190662 0.044419233 -0.046574485
7680000000 0.045898214 -0.034891643 -0.71004641 -0.6201008 -0.71458834 -0.62273359 0.045555495 -0.051979315
7720000000 0.038921315 -0.055260886 -0.77783448 -0.53410661 -0.78035313 -0.53495866 0.036975134 -0.058251295
7760000000 0.030758899 -0.062852636 -0.83239013 -0.44554871 -0.83248729 -0.4459728 0.032122869 -0.064758033
7800000000 0.018541444 -0.075149804 -0.86582625 -0.34588662 -0.86812723 -0.34728894 0.021418629 -0.068226486
7840000000 0.012859912 -0.06964308 -0.90541208 -0.24728671 -0.90643907 -0.24509378 0.016732847 -0.070667319
7880000000 0.0072324388 -0.081039019 -0.92776376 -0.14140242 -0.92849624 -0.14086284 0.010398783 -0.075751252
7920000000 -0.0083333412 -0.072766855 -0.93516076 -0.03943136 -0.94142413 -0.040236115 0.0010490585 -0.074120097
7960000000 -0.012069531 -0.077359453 -0.93581545 0.061240889 -0.93956137 0.063640311 -0.0085997051 -0.077389158
8000000000 -0.023094274 -0.074135341 -0.92753041 0.17077874 -0.92875904 0.16973802 -0.017061204 -0.068385474
8040000000 -0.032686628 -0.068190828 -0.90392667 0.26965424 -0.90626693 0.27088782 -0.020704515 -0.074778579
8080000000 -0.040841505 -0.072142899 -0.87069076 0.36706728 -0.87125969 0.36772275 -0.033125989 -0.06935814
8120000000 -0.040084422 -0.062197644 -0.82825309 0.46186835 -0.83030295 0.46295649 -0.03168213 -0.0620974
8160000000 -0.037575562 -0.051895197 -0.77303505 0.54640949 -0.77388686 0.551413 -0.03762171 -0.061505653
8200000000 -0.041939907 -0.034088455 -0.71012414 0.62672514 -0.70922458 0.62766194 -0.040750857 -0.048985504
8240000000 -0.048656911 -0.021202888 -0.63355523 0.70224738 -0.63575095 0.70142156 -0.047124419 -0.04082825
8280000000 -0.0562202 -0.015656156 -0.55085295 0.76397258 -0.54992443 0.76622868 -0.048597779 -0.036761176
