!Agilent Technologies,E8361C,US49010278,A.09.20.08
!Agilent E8361C: A.09.20.08
!Date: Tuesday, December 15, 2015 15:37:03
!Correction: S11(Full 2 Port(1,2)) 
!S21(Full 2 Port(1,2)) 
!S12(Full 2 Port(1,2)) 
!S22(Full 2 Port(1,2)) 
!S2P File: Measurements: S11, S21, S12, S22:
# Hz S  RI   R 50
1000000000 0.0040254463 -0.0085261147 -0.98147929 -0.13098885 -0.98259646 -0.13129166 0.0046537402 -0.0093288012
1040000000 0.0015683508 -0.01459778 -0.99016696 -0.013875836 -0.99144828 -0.014480827 0.0036320905 -0.012633924
1080000000 -0.0021739302 -0.012659947 -0.98479187 0.10421295 -0.98535043 0.10385513 0.0019717657 -0.014137529
1120000000 -0.00023441119 -0.015950544 -0.96501905 0.22063899 -0.96452171 0.22163112 0.0018448319 -0.016906179
1160000000 -0.0063257837 -0.020179281 -0.92944103 0.33355939 -0.92929065 0.33489579 -0.0030071172 -0.018784028
1200000000 -0.0082423072 -0.018400116 -0.88200164 0.44138676 -0.8820734 0.44437224 -0.0045465617 -0.020198427
1240000000 -0.010063155 -0.021656465 -0.82122856 0.5441978 -0.82197571 0.5471378 -0.0071632206 -0.022179242
1280000000 -0.016410537 -0.019326959 -0.74915457 0.6396268 -0.74982828 0.64179909 -0.011308092 -0.022413054
1320000000 -0.015878474 -0.017860442 -0.6656999 0.72581816 -0.66700643 0.72665823 -0.013558883 -0.022042299
1360000000 -0.020862799 -0.017506761 -0.57447743 0.80013132 -0.57512754 0.80123991 -0.016118005 -0.021182541
1400000000 -0.023402704 -0.013378454 -0.47489116 0.86384308 -0.4742766 0.86607689 -0.020727964 -0.019931259
1440000000 -0.026364492 -0.013213567 -0.36758682 0.91520584 -0.36730585 0.91591752 -0.022027303 -0.016795645
1480000000 -0.025853176 -0.0076627135 -0.25538608 0.95243323 -0.25546905 0.95364946 -0.024752377 -0.014740595
1520000000 -0.027952133 -0.0036527989 -0.14115882 0.97517008 -0.14072302 0.97608882 -0.028082769 -0.011468862
1560000000 -0.029992836 -0.00097372709 -0.021555645 0.99114859 -0.022575142 0.99280155 -0.029921027 -0.0083922865
1600000000 -0.018307824 0.0064928988 0.09579847 0.98758811 0.092696652 0.98596001 -0.021302519 -0.0069574583
1640000000 -0.0248743 0.0055890642 0.20998301 0.96642441 0.20948397 0.96615309 -0.029505184 -0.0038297432
1680000000 -0.021525295 0.018667588 0.32134902 0.93600529 0.32239062 0.93202007 -0.0222759 0.0049560545
1720000000 -0.020598913 0.013225108 0.43115005 0.88736379 0.4316546 0.88676643 -0.025629437 0.00353352
1760000000 -0.021251192 0.02105251 0.53057009 0.8287217 0.53377461 0.82871741 -0.023584288 0.010440496
1800000000 -0.013876824 0.016890872 0.6254583 0.75877053 0.62759042 0.75623494 -0.020990307 0.010304994
1840000000 -0.01738023 0.019887807 0.70896906 0.67182493 0.71243769 0.67160356 -0.018965757 0.01134822
1880000000 -0.0032263452 0.021909574 0.78328031 0.57833201 0.78965783 0.57990205 -0.014940917 0.011710844
1920000000 -0.010093816 0.011491804 0.8508665 0.47622338 0.85444665 0.47884351 -0.011275679 0.011771616
1960000000 -0.0054975334 0.021676557 0.90512568 0.36880559 0.90605307 0.37240443 -0.0080093518 0.010713461
2000000000 0.0019939605 0.0050857328 0.9453634 0.25807229 0.94477904 0.25978372 -0.0090705417 0.0085508553
2040000000 -0.0051149186 0.0085158814 0.97130895 0.14409931 0.97259229 0.14170285 -0.0059739305 0.0078150006
2080000000 0.0084837293 0.0029866989 0.98489785 0.026553413 0.98499984 0.024592245 -0.00087892124 0.00031489597
2120000000 -0.00222304 -0.0085969791 0.98019236 -0.091545641 0.98718601 -0.089440539 -0.0061679496 -9.324227e-005
2160000000 0.0043021869 -0.0023929668 0.96592432 -0.20497853 0.96757799 -0.20485078 -0.00024921005 -0.0027366367
2200000000 0.005932142 -0.018329766 0.93487448 -0.31826836 0.93488783 -0.31436306 -0.0049934303 -0.012815007
2240000000 0.00037986261 -0.013236539 0.8885625 -0.42456982 0.88907504 -0.42615455 -0.0035287235 -0.012253189
2280000000 0.0022290896 -0.018193001 0.83218956 -0.52676028 0.82801998 -0.52705425 -0.0065759108 -0.018329402
2320000000 -0.0071024993 -0.020805847 0.75999159 -0.62175363 0.75949317 -0.62311172 -0.011086693 -0.019067323
2360000000 -0.0094738575 -0.017574292 0.67844933 -0.70612693 0.67886245 -0.70872658 -0.012608727 -0.021776658
2400000000 -0.019413989 -0.021361578 0.58758473 -0.78063703 0.58932227 -0.78428358 -0.021171223 -0.020499149
2440000000 -0.023776922 -0.015009214 0.48662055 -0.84612405 0.48841351 -0.84650308 -0.024206983 -0.020477938
2480000000 -0.02440507 -0.018712405 0.37968466 -0.8956641 0.38184315 -0.89897108 -0.030453233 -0.019840958
2520000000 -0.034923036 -0.0084318481 0.2706188 -0.93811613 0.26967865 -0.93704587 -0.034344833 -0.013823943
2560000000 -0.028919406 -0.0026948729 0.15156882 -0.96411622 0.15237467 -0.9627986 -0.038181264 -0.013603128
2600000000 -0.045235053 0.00070918282 0.035288882 -0.97351098 0.034016743 -0.97539645 -0.04589076 -0.0058078901
2640000000 -0.043499969 0.012597522 -0.081207193 -0.97121555 -0.084961399 -0.97476923 -0.046389569 -0.00039199585
2680000000 -0.051491294 0.010153088 -0.19856299 -0.95510048 -0.20103985 -0.95971149 -0.051294681 0.0016460734
2720000000 -0.051684737 0.022208007 -0.31263581 -0.92642128 -0.31140482 -0.93179017 -0.050510541 0.01226161
2760000000 -0.050001707 0.021034203 -0.42013207 -0.88431084 -0.42029148 -0.88580465 -0.051591977 0.015534597
2800000000 -0.048110954 0.030509111 -0.52097005 -0.82769084 -0.5193482 -0.8294512 -0.051183145 0.026375839
2840000000 -0.039874393 0.037364479 -0.61473799 -0.76036489 -0.61570138 -0.7611776 -0.048860788 0.027253147
2880000000 -0.03856203 0.037538964 -0.70035553 -0.68139714 -0.70219374 -0.6796692 -0.047422893 0.03486301
2920000000 -0.031009443 0.043374076 -0.77620971 -0.59165692 -0.77750063 -0.59238666 -0.039162718 0.037785862
2960000000 -0.018516298 0.044934299 -0.84046215 -0.49327627 -0.84145653 -0.49510312 -0.035405032 0.042435318
3000000000 -0.016258903 0.049370456 -0.89510143 -0.38841647 -0.89466715 -0.38734201 -0.025910178 0.045591854
3040000000 -0.0075305155 0.051342484 -0.93406582 -0.27713147 -0.93470865 -0.2785134 -0.021060564 0.04812289
3080000000 0.0030285644 0.025425689 -0.94700545 -0.16799283 -0.95588875 -0.16331115 -0.015714273 0.049268004
3120000000 0.017300935 0.036761481 -0.96494627 -0.053235151 -0.9668507 -0.049749274 -0.011498705 0.040777892
3160000000 0.02855216 0.031103795 -0.95847821 0.075604253 -0.96704209 0.06878569 -0.0079310248 0.038934868
3200000000 0.029773194 0.040230293 -0.943376 0.18650281 -0.94862413 0.18876594 0.0075848619 0.038568735
3240000000 0.034730617 0.041590936 -0.92347193 0.30353218 -0.92041433 0.29827148 0.011450808 0.026116375
3280000000 0.026124271 0.035920903 -0.87718362 0.41478831 -0.87854034 0.41395375 0.013728262 0.031932913
3320000000 0.020888474 0.031328328 -0.82586962 0.51364452 -0.82162946 0.51729882 0.025084771 0.027771981
3360000000 0.019948503 0.014227574 -0.75871938 0.61058748 -0.7585541 0.612194 0.015063071 0.023857947
3400000000 0.017343586 0.0079083946 -0.67758536 0.6966536 -0.68219972 0.70073974 0.013937125 0.014296209
3440000000 0.021364618 0.0095769884 -0.59455436 0.77235955 -0.59531051 0.77689153 0.0061537395 0.010000974
3480000000 0.01105876 0.0046878024 -0.49595624 0.84477252 -0.49727705 0.8405022 0.013986525 0.0011795565
3520000000 -0.0087876692 0.0091296881 -0.39341334 0.89537829 -0.39429626 0.89484358 0.0037683507 -0.00084754452
3560000000 -0.014862392 -0.0038950988 -0.2895593 0.93561035 -0.28452319 0.9378646 0.0036045811 0.0065219845
3600000000 -0.026545078 -0.017071253 -0.17373182 0.9599151 -0.17080832 0.96064574 -0.0078169825 0.0031352369
3640000000 -0.017959885 -0.012707207 -0.055702306 0.97124404 -0.059836254 0.97206259 -0.020747432 -0.0016966286
3680000000 -0.019965811 -0.008846133 0.061920349 0.97015768 0.059753031 0.97479838 -0.024239538 -0.0015657127
3720000000 -0.028377404 -0.0024560648 0.17604452 0.95689589 0.18036957 0.95195341 -0.025944015 -0.00049120781
3760000000 -0.034900643 0.0008743385 0.28822938 0.92510897 0.28679791 0.92159009 -0.028024282 0.0046424083
3800000000 -0.035603832 0.0060053044 0.39717472 0.87613511 0.40176097 0.88246524 -0.036043514 0.015820574
3840000000 -0.029533118 0.01695429 0.49816477 0.81990695 0.50549453 0.81851155 -0.037981637 0.020192724
3880000000 -0.034394339 0.019637454 0.59785366 0.75011426 0.59911871 0.75569016 -0.039941769 0.02328991
3920000000 -0.029994054 0.039556731 0.68593192 0.6691941 0.68878496 0.67798489 -0.048234094 0.030470083
3960000000 -0.019103702 0.032560643 0.76689154 0.58581018 0.76980174 0.58498162 -0.036069121 0.037637658
4000000000 -0.027940433 0.05064299 0.83062536 0.49709159 0.83134449 0.49802402 -0.035334002 0.046246763
4040000000 -0.021439908 0.057057004 0.8837148 0.39427429 0.88550967 0.39310923 -0.030082885 0.053859185
4080000000 -0.011068485 0.06978818 0.93120778 0.28124031 0.93085515 0.27744582 -0.021501852 0.051179059
4120000000 -0.00085931359 0.087314509 0.9535886 0.17071693 0.95733136 0.16581157 -0.0096420152 0.062525094
4160000000 -0.0015532927 0.074078426 0.97105861 0.053890001 0.97260451 0.056516211 -0.0025616407 0.06838429
4200000000 -0.00074567238 0.084103964 0.96814126 -0.063345425 0.97674602 -0.059288088 0.0068884534 0.073185287
4240000000 0.018153939 0.072554074 0.95869207 -0.17125589 0.95500094 -0.17527138 0.0080513451 0.07031779
4280000000 0.016230192 0.070434436 0.93256295 -0.28722253 0.92634815 -0.28086597 0.019619318 0.075087421
4320000000 0.02898092 0.064864106 0.88436037 -0.39099386 0.89112508 -0.3931556 0.031028105 0.067941882
4360000000 0.029022435 0.049137466 0.83218342 -0.48496965 0.8244096 -0.49753511 0.029177995 0.064553961
4400000000 0.043714032 0.051570989 0.76015806 -0.58470029 0.75924313 -0.58204138 0.040977944 0.059492983
4440000000 0.05505256 0.028812317 0.67297941 -0.67001921 0.68584305 -0.67369014 0.042797994 0.051324103
4480000000 0.04000432 0.031728748 0.5868175 -0.75055784 0.58356243 -0.75550061 0.04535548 0.039819017
4520000000 0.055911563 0.025150234 0.50094676 -0.82526672 0.50144452 -0.82534361 0.053069443 0.031162713
4560000000 0.056379292 0.015738374 0.39766634 -0.87957722 0.3974545 -0.87930179 0.052447952 0.022736711
4600000000 0.055703182 0.0160845 0.2785131 -0.91995591 0.27773944 -0.92092633 0.043961521 0.010796322
4640000000 0.044964429 -0.017749762 0.16739446 -0.94810265 0.16735326 -0.95259517 0.043018986 0.0022941337
4680000000 0.046568941 -0.0094424086 0.051962737 -0.96511227 0.051436614 -0.96606147 0.048815478 -0.0027230615
4720000000 0.055939738 -0.028155949 -0.063602209 -0.967655 -0.062133878 -0.96949118 0.03747806 -0.013049497
4760000000 0.037402499 -0.014209532 -0.17600897 -0.95704013 -0.17772368 -0.95579654 0.031549547 -0.0029586526
4800000000 0.046825826 -0.012470067 -0.28765032 -0.93053734 -0.2902799 -0.92854697 0.027412163 -0.016507991
4840000000 0.020026712 -0.014063057 -0.39555958 -0.89060855 -0.39514476 -0.89146185 0.015289019 -0.01807793
4880000000 0.016842965 0.0032791067 -0.49156839 -0.83481193 -0.49562657 -0.83542562 0.017135281 -0.011537742
4920000000 0.0044515855 -0.01039375 -0.58775294 -0.77191198 -0.58728921 -0.76978385 0.012069231 -0.0071927635
4960000000 -0.011924536 0.0087490305 -0.6732409 -0.69096696 -0.66883647 -0.69245899 0.0092067244 -0.00070149894
5000000000 -0.010263693 0.00075617549 -0.75678134 -0.59577274 -0.75685942 -0.59662682 -0.0040505165 0.0035711734
5040000000 -0.010520169 0.008186738 -0.8228547 -0.49992609 -0.82322091 -0.50049496 -0.0077284486 0.0098393438
5080000000 -0.018265571 0.03414486 -0.86343628 -0.39035571 -0.86750865 -0.39345399 -0.0051041106 0.020579489
5120000000 -0.019760814 0.021021554 -0.91218454 -0.27765295 -0.91401321 -0.2794092 -0.0097893523 0.022959894
5160000000 -0.01973803 0.032086607 -0.93516308 -0.16319555 -0.93623507 -0.16414893 -0.0078749005 0.038563535
5200000000 -0.0026721563 0.029932117 -0.95179158 -0.050836023 -0.95521134 -0.050832052 -0.0030682029 0.041880537
5240000000 -0.0042643901 0.04477847 -0.95554167 0.067367516 -0.96062499 0.069788426 -0.0037583865 0.053054981
5280000000 0.011540066 0.045657057 -0.94118631 0.18322083 -0.94277942 0.18385635 0.0012943748 0.049822595
5320000000 0.0053930217 0.05083726 -0.91597068 0.29579303 -0.92049587 0.29359734 0.0081585227 0.060860202
5360000000 0.031738564 0.053584043 -0.88247639 0.39885357 -0.88400704 0.40020412 0.025845034 0.052547377
5400000000 0.039456971 0.047654185 -0.8316623 0.499176 -0.82994044 0.49717736 0.025291445 0.053896032
5440000000 0.042881407 0.058086209 -0.76589757 0.58850902 -0.76634651 0.59205598 0.043948017 0.058699992
5480000000 0.060221817 0.052446321 -0.69133586 0.66827029 -0.68660027 0.67023343 0.051205594 0.042749532
5520000000 0.06146735 0.035797227 -0.60340595 0.74672824 -0.60066009 0.74595183 0.056242477 0.044475436
5560000000 0.083715372 0.034496561 -0.50551069 0.81201524 -0.50807363 0.81275916 0.072929226 0.038621802
5600000000 0.082660623 0.026713332 -0.40218663 0.86240685 -0.40092599 0.863047 0.073399812 0.031597655
5640000000 0.08556731 0.030216198 -0.29506686 0.90076005 -0.29219598 0.89977503 0.075824 0.021820253
5680000000 0.084246427 0.0062233629 -0.18299265 0.92859238 -0.17979623 0.93095601 0.075384684 0.011119332
5720000000 0.073685601 0.010459774 -0.056669727 0.93998778 -0.056034662 0.94307429 0.079478145 0.00088677311
5760000000 0.078993358 -0.0035695219 0.059048586 0.94347435 0.057818923 0.9492892 0.083155781 -0.01370902
5800000000 0.067599244 -0.021172797 0.17715345 0.93631405 0.17876993 0.93732291 0.074915916 -0.015967784
5840000000 0.070615664 -0.026777131 0.28898624 0.91015726 0.28539771 0.91071063 0.080781654 -0.027454982
5880000000 0.06940116 -0.042995643 0.39267334 0.87417358 0.394425 0.87756979 0.066494666 -0.039586943
5920000000 0.057052046 -0.0305831 0.49636599 0.82040793 0.50053799 0.8214106 0.060099095 -0.037144586
5960000000 0.04855521 -0.044100102 0.59052873 0.75700516 0.58867067 0.75581431 0.052666195 -0.046271015
6000000000 0.042561535 -0.050387278 0.67101699 0.67973214 0.67181242 0.68026918 0.04330482 -0.049446031
6040000000 0.033584144 -0.051389318 0.74773461 0.59345257 0.74896085 0.59521431 0.033203736 -0.050429862
6080000000 0.025995683 -0.062588744 0.8169722 0.50893682 0.81545758 0.50389534 0.020341866 -0.03893381
6120000000 0.017996382 -0.044040401 0.86735165 0.40579531 0.86833465 0.40522119 0.016298892 -0.043600079
6160000000 0.015943978 -0.045854192 0.90529656 0.29392898 0.90622801 0.29185498 0.00023553817 -0.043983065
6200000000 -0.0051793582 -0.043912482 0.93271673 0.18113145 0.93353665 0.18166567 0.00029395425 -0.038726818
6240000000 0.00095797476 -0.031322289 0.94737917 0.065365814 0.9491781 0.065358043 -0.00079399382 -0.03342063
6280000000 -0.0017057348 -0.03761081 0.94776398 -0.051992901 0.94779271 -0.052375682 -0.0034706932 -0.022534419
6320000000 -0.000101766 -0.017435269 0.93276924 -0.16579339 0.93293369 -0.16604914 -0.0069173495 -0.011010722
6360000000 0.0071300291 -0.0090589933 0.90282357 -0.27785674 0.90647185 -0.28075895 -0.009974476 0.0001755564
6400000000 0.0057879724 0.0074850968 0.86215079 -0.39210954 0.86363691 -0.39192477 -0.004572242 0.00016000467
6440000000 0.0099497512 0.014587025 0.80707657 -0.49419275 0.8129729 -0.49436706 -0.0064384914 0.0033525843
6480000000 0.0098823672 0.022916643 0.74490559 -0.5896343 0.74670559 -0.59371305 0.01216112 0.012730138
6520000000 0.017618654 0.025721755 0.67162341 -0.67870504 0.67322105 -0.67684317 0.01952547 0.0089065591
6560000000 0.021189602 0.021889167 0.58462399 -0.75359559 0.58683485 -0.75534165 0.02395498 0.022321694
6600000000 0.026027838 0.02057749 0.49393392 -0.81643671 0.490437 -0.81922144 0.041208148 0.022485064
6640000000 0.04028146 0.021251237 0.39158922 -0.87103933 0.39128795 -0.87131894 0.039505463 0.021030026
6680000000 0.047391538 0.013369764 0.28275266 -0.91068828 0.28475878 -0.91248846 0.049461171 0.015728364
6720000000 0.047183454 0.014815331 0.17441976 -0.93663931 0.17386286 -0.93983638 0.055306189 0.010046178
6760000000 0.056027003 0.0026662915 0.062200531 -0.95125079 0.061271224 -0.94681859 0.063913748 0.0054555158
6800000000 0.051529896 -0.0099316947 -0.05142669 -0.94745934 -0.050118133 -0.94768769 0.069492459 -0.0029465375
6840000000 0.060336221 -0.020168828 -0.16288522 -0.93105114 -0.16549493 -0.93430817 0.066937938 -0.005520415
6880000000 0.061160725 -0.036533225 -0.27589878 -0.89770514 -0.27968827 -0.89954138 0.068932392 -0.013532029
6920000000 0.065485999 -0.043449424 -0.382052 -0.85878545 -0.38036761 -0.85868764 0.060266659 -0.033980545
6960000000 0.068722963 -0.053536508 -0.48465604 -0.803029 -0.4857806 -0.80811107 0.058857031 -0.037964653
7000000000 0.065004081 -0.057860367 -0.58034706 -0.73784477 -0.58228552 -0.73620039 0.058340702 -0.057210159
7040000000 0.06279768 -0.059290692 -0.66442627 -0.66248131 -0.66385275 -0.66284341 0.048755813 -0.062958762
7080000000 0.046570923 -0.068444453 -0.7411297 -0.57834506 -0.742221 -0.5802514 0.043502528 -0.067073464
7120000000 0.035227478 -0.067709096 -0.80620939 -0.48547408 -0.81084496 -0.48386282 0.036476064 -0.078584649
7160000000 0.032863501 -0.080820888 -0.86062479 -0.38408911 -0.86095548 -0.38403258 0.024225274 -0.077379964
7200000000 0.021675076 -0.080872506 -0.90547419 -0.27828857 -0.90458137 -0.28114945 0.012337869 -0.079467826
7240000000 0.022139708 -0.070857011 -0.93287456 -0.16837701 -0.93388963 -0.16987936 0.0062903627 -0.079576127
7280000000 0.0034075521 -0.068873905 -0.9470697 -0.059812073 -0.9465028 -0.057374217 -0.0036523913 -0.081978045
7320000000 -0.01052926 -0.056061387 -0.9493345 0.054748613 -0.94737875 0.055396505 -0.010580614 -0.072048828
7360000000 -0.020244649 -0.062023606 -0.9323433 0.16746035 -0.93342465 0.16408406 -0.017959159 -0.06671869
7400000000 -0.036369435 -0.054928273 -0.90587455 0.27358043 -0.90920669 0.27676013 -0.023740821 -0.058070593
7440000000 -0.031776432 -0.051706366 -0.86575639 0.38260263 -0.86232847 0.38504615 -0.031423744 -0.048351042
7480000000 -0.036682323 -0.046784323 -0.81099588 0.48136619 -0.81043017 0.47784132 -0.030195056 -0.040550981
7520000000 -0.034279794 -0.032629434 -0.74526852 0.57539815 -0.74748009 0.58094454 -0.032524262 -0.031788643
7560000000 -0.030626804 -0.02478914 -0.66659093 0.66083324 -0.66269338 0.66588396 -0.03115733 -0.021172628
7600000000 -0.034577329 -0.010712876 -0.57855481 0.73793793 -0.58015567 0.73652917 -0.030089717 -0.0099402629
7640000000 -0.022673145 -0.0053987945 -0.47952721 0.80381393 -0.48556289 0.80904883 -0.023116102 -0.0032709518
7680000000 -0.028976195 -0.01064526 -0.37863606 0.86007184 -0.37724739 0.86391056 -0.025211425 0.0007418539
7720000000 -0.011678998 0.0029307769 -0.27908409 0.90265679 -0.27979904 0.90528536 -0.012183111 0.0037793196
7760000000 -0.0026895576 0.0052166823 -0.16861643 0.9310717 -0.16909233 0.93054032 -0.0035294057 0.0067652739
7800000000 0.0096029146 0.0071005491 -0.048653618 0.94489074 -0.048606429 0.94557399 0.0047776299 0.00813739
7840000000 0.015171289 0.0024171707 0.066075101 0.94586772 0.065831095 0.94623667 0.012027476 0.00019840068
7880000000 0.023305524 0.0069570141 0.18002692 0.93103445 0.18102288 0.93179768 0.014448178 -0.0025173128
7920000000 0.034439698 -0.0065772044 0.28672051 0.9021886 0.28828001 0.90409338 0.026241885 -0.011982712
7960000000 0.036461525 -0.010788321 0.39384481 0.86369056 0.39331624 0.86451501 0.038649552 -0.01805119
8000000000 0.039903581 -0.012528682 0.49476734 0.80602157 0.49484473 0.80883771 0.039903719 -0.025871417
8040000000 0.046324629 -0.032649335 0.57882667 0.74202448 0.58072233 0.73943913 0.04303956 -0.024788201
8080000000 0.043146163 -0.033598825 0.66750938 0.66487914 0.66437334 0.66463774 0.045517419 -0.036292404
8120000000 0.041634098 -0.036295727 0.73906428 0.57060981 0.74291867 0.5722031 0.037318882 -0.046315979
8160000000 0.02695521 -0.046317235 0.79848546 0.47872669 0.80206472 0.47467715 0.034564257 -0.050712049
8200000000 0.015785849 -0.051830132 0.85462976 0.37793583 0.85469204 0.37867847 0.033829432 -0.059262134
8240000000 0.0043658619 -0.072474398 0.8929897 0.26481077 0.89609504 0.26837233 0.02349313 -0.066546686
8280000000 0.0048009832 -0.075778335 0.9153825 0.15431048 0.91728199 0.15246339 0.015254267 -0.066350423
