!Agilent Technologies,E8361C,US49010278,A.09.20.08
!Agilent E8361C: A.09.20.08
!Date: Tuesday, December 15, 2015 15:55:00
!Correction: S11(Full 2 Port(1,2)) 
!S1P File: Measurement: S11:
# Hz S  RI   R 50
1000000000 -0.52497417 -0.84160626
1040000000 -0.59343958 -0.79364878
1080000000 -0.65696126 -0.7423079
1120000000 -0.71738678 -0.68118644
1160000000 -0.77031815 -0.62152565
1200000000 -0.81844157 -0.55478293
1240000000 -0.86134845 -0.48493603
1280000000 -0.89879125 -0.41113779
1320000000 -0.92794985 -0.33546618
1360000000 -0.95322376 -0.25565419
1400000000 -0.97046858 -0.17685908
1440000000 -0.98193097 -0.096134387
1480000000 -0.98430657 -0.014400551
1520000000 -0.98327041 0.066187456
1560000000 -0.97202879 0.14665827
1600000000 -0.95694882 0.22787642
1640000000 -0.93330699 0.30524617
1680000000 -0.90649796 0.38113698
1720000000 -0.87047452 0.45508656
1760000000 -0.83251184 0.52335185
1800000000 -0.78397375 0.5914942
1840000000 -0.73437119 0.65152371
1880000000 -0.67678523 0.71011913
1920000000 -0.61688918 0.7620489
1960000000 -0.55208689 0.81145167
2000000000 -0.48270771 0.85050684
2040000000 -0.4113456 0.89028507
2080000000 -0.33580381 0.9184615
2120000000 -0.25875154 0.94443423
2160000000 -0.17912331 0.96168238
2200000000 -0.10160359 0.97461456
2240000000 -0.019876719 0.97790259
2280000000 0.060131066 0.97836208
2320000000 0.14077994 0.9677127
2360000000 0.21950968 0.95435858
2400000000 0.29891247 0.9320401
2440000000 0.37350741 0.90412259
2480000000 0.45032138 0.86961997
2520000000 0.51926714 0.8287316
2560000000 0.58862525 0.78209192
2600000000 0.6513586 0.72960776
2640000000 0.71060109 0.67305785
2680000000 0.76350898 0.60870123
2720000000 0.81536669 0.5448193
2760000000 0.85546261 0.47283167
2800000000 0.89450604 0.40097687
2840000000 0.92357326 0.3227227
2880000000 0.94800413 0.24498688
2920000000 0.96463001 0.15981434
2960000000 0.976327 0.079423308
3000000000 0.9773072 -0.0067028431
3040000000 0.97370946 -0.090260111
3080000000 0.96397793 -0.17279454
3120000000 0.94019866 -0.25486308
3160000000 0.91506958 -0.33633927
3200000000 0.88357699 -0.41498429
3240000000 0.84178495 -0.49184635
3280000000 0.79729813 -0.5615688
3320000000 0.74690366 -0.6309287
3360000000 0.68735886 -0.6933139
3400000000 0.62644547 -0.75245422
3440000000 0.5566178 -0.79929322
3480000000 0.48371071 -0.846708
3520000000 0.40534717 -0.88805401
3560000000 0.32840493 -0.91639942
3600000000 0.24547987 -0.94163907
3640000000 0.16223526 -0.9587428
3680000000 0.074781962 -0.96627539
3720000000 -0.010552107 -0.97071362
3760000000 -0.097289719 -0.96661776
3800000000 -0.18235677 -0.95147842
3840000000 -0.26721308 -0.93288141
3880000000 -0.34738412 -0.90568125
3920000000 -0.42750388 -0.86922133
3960000000 -0.50344056 -0.82680285
4000000000 -0.572846 -0.78167093
4040000000 -0.6396414 -0.7242344
4080000000 -0.70134729 -0.66799468
4120000000 -0.75425756 -0.60359347
4160000000 -0.80221808 -0.53220129
4200000000 -0.84516257 -0.45716459
4240000000 -0.88249826 -0.38189545
4280000000 -0.91438884 -0.29780048
4320000000 -0.93552029 -0.22166829
4360000000 -0.95257378 -0.13757035
4400000000 -0.95821911 -0.05173311
4440000000 -0.95702267 0.030283691
4480000000 -0.95111501 0.11311287
4520000000 -0.93924463 0.19559541
4560000000 -0.91697538 0.27620247
4600000000 -0.89196259 0.35315657
4640000000 -0.85558468 0.42756286
4680000000 -0.81411451 0.49759254
4720000000 -0.76682979 0.56814891
4760000000 -0.7169587 0.62728947
4800000000 -0.66202462 0.68669975
4840000000 -0.5991419 0.73514837
4880000000 -0.53679949 0.78341556
4920000000 -0.46640417 0.82590336
4960000000 -0.39292112 0.86458546
5000000000 -0.32333806 0.8928625
5040000000 -0.24689016 0.91889554
5080000000 -0.17245227 0.93435585
5120000000 -0.097258009 0.9446609
5160000000 -0.015604361 0.94881332
5200000000 0.059167229 0.94897699
5240000000 0.13674833 0.93958509
5280000000 0.21390979 0.92340022
5320000000 0.2886579 0.90024573
5360000000 0.36332473 0.87546855
5400000000 0.4376612 0.83975029
5440000000 0.49987471 0.80570155
5480000000 0.56742471 0.76239121
5520000000 0.62410462 0.71543324
5560000000 0.6768918 0.66664678
5600000000 0.72651821 0.608266
5640000000 0.77334452 0.54866248
5680000000 0.81430173 0.48497289
5720000000 0.8517406 0.41916895
5760000000 0.88248032 0.35140914
5800000000 0.90644854 0.27816439
5840000000 0.92440385 0.20233452
5880000000 0.93997717 0.13080081
5920000000 0.9471519 0.052556656
5960000000 0.94858325 -0.019617654
6000000000 0.94465947 -0.09343037
6040000000 0.93229884 -0.16690937
6080000000 0.91685045 -0.24264249
6120000000 0.89616293 -0.31266826
6160000000 0.86898804 -0.38464257
6200000000 0.83637512 -0.45187542
6240000000 0.79947305 -0.51363581
6280000000 0.75113785 -0.57641578
6320000000 0.70456177 -0.63480735
6360000000 0.65252751 -0.68859112
6400000000 0.59517109 -0.7368266
6440000000 0.53561145 -0.78283131
6480000000 0.47111219 -0.82321179
6520000000 0.40274775 -0.85997045
6560000000 0.33280244 -0.88880759
6600000000 0.25682384 -0.91423678
6640000000 0.18437351 -0.93380767
6680000000 0.1108639 -0.9491908
6720000000 0.031573452 -0.94932699
6760000000 -0.043731775 -0.9496122
6800000000 -0.12406809 -0.94185156
6840000000 -0.20143542 -0.92783982
6880000000 -0.27872425 -0.90812355
6920000000 -0.35001028 -0.88285553
6960000000 -0.42142206 -0.84801549
7000000000 -0.49167493 -0.81187838
7040000000 -0.55889034 -0.76342303
7080000000 -0.62142277 -0.71526015
7120000000 -0.68333083 -0.66154462
7160000000 -0.73631293 -0.60216725
7200000000 -0.78588343 -0.54105282
7240000000 -0.82719576 -0.46873453
7280000000 -0.86120713 -0.39619818
7320000000 -0.89606851 -0.31875917
7360000000 -0.91762805 -0.24107248
7400000000 -0.93480754 -0.15992208
7440000000 -0.94380069 -0.077369697
7480000000 -0.94388092 0.0076284488
7520000000 -0.94098598 0.09246368
7560000000 -0.92860907 0.17933428
7600000000 -0.910851 0.25758463
7640000000 -0.88823605 0.34016913
7680000000 -0.85262936 0.41355732
7720000000 -0.81280947 0.48746946
7760000000 -0.76560354 0.55731875
7800000000 -0.71404004 0.62182391
7840000000 -0.65057862 0.68601149
7880000000 -0.58523321 0.74420798
7920000000 -0.51355696 0.79481477
7960000000 -0.43811682 0.838103
8000000000 -0.35914066 0.87274468
8040000000 -0.27824694 0.90210801
8080000000 -0.19237936 0.92274296
8120000000 -0.11258709 0.93687177
8160000000 -0.023543617 0.94453692
8200000000 0.059849486 0.94103527
8240000000 0.14488536 0.93235004
8280000000 0.23080617 0.91139901
8320000000 0.31560799 0.88779652
8360000000 0.39531165 0.8544699
8400000000 0.4712126 0.81499058
8440000000 0.5415554 0.76883632
8480000000 0.60763496 0.71593726
8520000000 0.66966277 0.65430737
8560000000 0.72535968 0.59441471
8600000000 0.77592325 0.52459395
8640000000 0.8177641 0.45112038
8680000000 0.85629547 0.37627447
8720000000 0.8848424 0.29517806
8760000000 0.90729976 0.21171023
8800000000 0.92194074 0.13111167
8840000000 0.93174285 0.048182297
8880000000 0.9307164 -0.032131515
8920000000 0.9221431 -0.11123536
8960000000 0.90506119 -0.19195868
9000000000 0.88689655 -0.27103993
9040000000 0.85740131 -0.34753582
9080000000 0.8227722 -0.41813308
9120000000 0.78296143 -0.48774678
9160000000 0.73508984 -0.55461973
9200000000 0.68103027 -0.61519039
9240000000 0.62756073 -0.66938519
9280000000 0.56541896 -0.72270447
9320000000 0.50119364 -0.76480484
9360000000 0.43693051 -0.80303442
9400000000 0.36595687 -0.83406287
9440000000 0.2932303 -0.86075574
9480000000 0.2196842 -0.87905663
9520000000 0.14817165 -0.89586061
9560000000 0.075359665 -0.90243793
9600000000 0.0025410636 -0.90185028
9640000000 -0.072404832 -0.89620584
9680000000 -0.14545849 -0.88786513
9720000000 -0.22048648 -0.8683424
9760000000 -0.28965992 -0.84611529
9800000000 -0.3595095 -0.82086295
9840000000 -0.42375773 -0.7846604
9880000000 -0.48428372 -0.74776095
9920000000 -0.53989595 -0.70586306
9960000000 -0.59513891 -0.65964162
10000000000 -0.64382011 -0.60957885
10040000000 -0.68822515 -0.55611825
10080000000 -0.73052144 -0.49396709
10120000000 -0.76690614 -0.43555412
10160000000 -0.79762977 -0.36945212
10200000000 -0.82410729 -0.30082726
10240000000 -0.84351057 -0.23230219
10280000000 -0.85784054 -0.16655254
10320000000 -0.86864793 -0.094677448
10360000000 -0.87098283 -0.028627738
10400000000 -0.87032962 0.040435001
10440000000 -0.86218739 0.11094193
10480000000 -0.84765983 0.18026747
10520000000 -0.82704252 0.24895424
10560000000 -0.80521899 0.3164883
10600000000 -0.77567452 0.37997758
10640000000 -0.74063611 0.43960115
10680000000 -0.70109445 0.49854293
10720000000 -0.65878397 0.55276203
10760000000 -0.6089552 0.60405618
10800000000 -0.55891222 0.6499238
10840000000 -0.50190252 0.69383305
10880000000 -0.44016561 0.73228598
10920000000 -0.37667945 0.76726967
10960000000 -0.30938369 0.79499656
11000000000 -0.23899175 0.82018137
11040000000 -0.16970208 0.83676678
11080000000 -0.10131712 0.84886283
11120000000 -0.032143261 0.85383582
11160000000 0.037866924 0.85307205
11200000000 0.10911033 0.84441495
11240000000 0.17961636 0.83435535
11280000000 0.25276107 0.81389135
11320000000 0.32179713 0.78745705
11360000000 0.39229614 0.75662112
11400000000 0.45867294 0.71772712
11440000000 0.52201462 0.67308342
11480000000 0.5785985 0.62773538
11520000000 0.6353662 0.5762412
11560000000 0.6831817 0.52041054
11600000000 0.72468328 0.46312431
11640000000 0.76036859 0.3986682
11680000000 0.79263639 0.33122882
11720000000 0.81796312 0.26129094
11760000000 0.83991474 0.19271173
11800000000 0.85414749 0.11915334
11840000000 0.86084396 0.040540647
11880000000 0.86096907 -0.038568318
11920000000 0.85661072 -0.1184691
11960000000 0.84029984 -0.19984843
12000000000 0.8233875 -0.27610284
12040000000 0.79785144 -0.35085577
12080000000 0.76499462 -0.41930959
12120000000 0.73375374 -0.48482966
12160000000 0.68898469 -0.5436278
12200000000 0.64209455 -0.59958923
12240000000 0.58618897 -0.65131867
12280000000 0.5259214 -0.70421773
12320000000 0.45935008 -0.75168937
12360000000 0.39623755 -0.78895009
12400000000 0.32605985 -0.82222563
12440000000 0.24909353 -0.85083079
12480000000 0.17703314 -0.86584532
12520000000 0.10541546 -0.88139093
12560000000 0.025946833 -0.8888585
12600000000 -0.043909628 -0.88809735
12640000000 -0.11412378 -0.88544506
12680000000 -0.18657736 -0.87185949
12720000000 -0.26261613 -0.85284716
12760000000 -0.33352101 -0.82582974
12800000000 -0.40346247 -0.80139017
12840000000 -0.46930543 -0.76284063
12880000000 -0.53213894 -0.72360206
12920000000 -0.59288555 -0.67450827
12960000000 -0.6398626 -0.62648815
13000000000 -0.69156742 -0.57711309
13040000000 -0.7374714 -0.51630008
13080000000 -0.77361035 -0.44978562
13120000000 -0.81024456 -0.38760161
13160000000 -0.84502119 -0.31624001
13200000000 -0.86564857 -0.24728997
13240000000 -0.88511932 -0.18106742
13280000000 -0.89387751 -0.10994748
13320000000 -0.89997 -0.032106511
13360000000 -0.89997995 0.044925757
13400000000 -0.89739257 0.11455313
13440000000 -0.88514143 0.19533339
13480000000 -0.86237013 0.26539993
13520000000 -0.84094155 0.33484378
13560000000 -0.80759341 0.4059892
13600000000 -0.76802784 0.47214654
13640000000 -0.73091328 0.52924746
13680000000 -0.69054949 0.58831781
13720000000 -0.63980609 0.64095491
13760000000 -0.58143574 0.68785661
13800000000 -0.51712346 0.73409659
13840000000 -0.44892401 0.78202456
13880000000 -0.37495708 0.81874216
13920000000 -0.30579844 0.84695905
13960000000 -0.23269278 0.86997145
14000000000 -0.15304133 0.88898462
14040000000 -0.074887678 0.89418775
14080000000 -0.0025829396 0.90165406
14120000000 0.080678232 0.89666909
14160000000 0.1564794 0.88293499
14200000000 0.23125829 0.86579984
14240000000 0.31233388 0.83754957
14280000000 0.39475846 0.79997969
14320000000 0.46666563 0.76077539
14360000000 0.53412801 0.72037196
14400000000 0.59687597 0.66964424
14440000000 0.64529049 0.61141902
14480000000 0.69439209 0.55325037
14520000000 0.74660081 0.4804683
14560000000 0.78734291 0.39951983
14600000000 0.81673217 0.32444859
14640000000 0.85201496 0.24298793
14680000000 0.86525655 0.15190168
14720000000 0.8711195 0.07377471
14760000000 0.87367964 -0.010789064
14800000000 0.86777842 -0.096501082
14840000000 0.85269439 -0.17263955
14880000000 0.83614963 -0.24643895
14920000000 0.80257094 -0.32196864
14960000000 0.75949073 -0.4026573
15000000000 0.7060957 -0.47521859
15040000000 0.66079915 -0.5492608
15080000000 0.59372389 -0.61745119
15120000000 0.53417873 -0.66401184
15160000000 0.47637886 -0.71261239
15200000000 0.40084305 -0.75305295
15240000000 0.32627609 -0.77819031
15280000000 0.25785697 -0.80310589
15320000000 0.17662728 -0.82914871
15360000000 0.09887407 -0.83641732
15400000000 0.023612527 -0.83986086
15440000000 -0.057195641 -0.83440334
15480000000 -0.13475041 -0.8282904
15520000000 -0.21192425 -0.80986452
15560000000 -0.28207549 -0.78441304
15600000000 -0.34712738 -0.75495988
15640000000 -0.41508403 -0.72315741
15680000000 -0.4757874 -0.6788063
15720000000 -0.52876526 -0.63942707
15760000000 -0.58414483 -0.59223503
15800000000 -0.6295808 -0.53792942
15840000000 -0.66607606 -0.48459864
15880000000 -0.70473975 -0.42665535
15920000000 -0.74289322 -0.36499858
15960000000 -0.76483101 -0.30047879
16000000000 -0.78833717 -0.23934488
16040000000 -0.80411178 -0.17228031
16080000000 -0.81371051 -0.10705805
16120000000 -0.82129455 -0.044101357
16160000000 -0.82474762 0.022417141
16200000000 -0.81604779 0.084795766
16240000000 -0.81124586 0.14383084
16280000000 -0.79893523 0.20810015
16320000000 -0.7756598 0.26585996
16360000000 -0.75345451 0.3208057
16400000000 -0.72564781 0.37960568
16440000000 -0.69144344 0.43923432
16480000000 -0.65756321 0.48813325
16520000000 -0.62627053 0.53683227
16560000000 -0.58425152 0.57988852
16600000000 -0.54283571 0.61705846
16640000000 -0.4972243 0.65034878
16680000000 -0.44749671 0.68983901
16720000000 -0.38996854 0.72035086
16760000000 -0.33632553 0.74467039
16800000000 -0.27997053 0.77265048
16840000000 -0.2147243 0.79120427
16880000000 -0.15620811 0.80392075
16920000000 -0.098541081 0.81775552
16960000000 -0.037926584 0.82613713
17000000000 0.017992536 0.82537043
17040000000 0.071883 0.82428229
17080000000 0.13093428 0.81455541
17120000000 0.19559306 0.80104423
17160000000 0.25975686 0.78204471
17200000000 0.31973672 0.76319605
17240000000 0.38615692 0.73447794
17280000000 0.4404887 0.70208079
17320000000 0.49340859 0.67090058
17360000000 0.54271358 0.63279849
17400000000 0.58861065 0.58924794
17440000000 0.62940294 0.54347193
17480000000 0.67211086 0.49405766
17520000000 0.70701623 0.43444136
17560000000 0.74402344 0.36924699
17600000000 0.775428 0.29779369
17640000000 0.8017633 0.22515412
17680000000 0.81869519 0.15171118
17720000000 0.83217233 0.085470721
17760000000 0.83986151 0.018466376
17800000000 0.83840632 -0.051929515
17840000000 0.82675719 -0.12048179
17880000000 0.81119955 -0.19080555
17920000000 0.78856772 -0.27245843
17960000000 0.75540608 -0.34744456
18000000000 0.72146952 -0.42262688
18040000000 0.67772818 -0.49123958
18080000000 0.62750185 -0.55460858
18120000000 0.57649046 -0.60717618
18160000000 0.52781814 -0.65897769
18200000000 0.46571267 -0.70185852
18240000000 0.39810711 -0.73722523
18280000000 0.32654122 -0.77207088
18320000000 0.23928936 -0.7994715
18360000000 0.15085307 -0.8159914
18400000000 0.067980319 -0.83242869
18440000000 -0.018168584 -0.84062451
18480000000 -0.099302918 -0.83250678
18520000000 -0.17369883 -0.82068419
18560000000 -0.24732456 -0.80181962
18600000000 -0.32635698 -0.77304113
18640000000 -0.39823267 -0.73284215
18680000000 -0.46900815 -0.69118899
18720000000 -0.54092759 -0.63837808
18760000000 -0.60522521 -0.57549167
18800000000 -0.66082221 -0.51026607
18840000000 -0.71523327 -0.45056179
18880000000 -0.75285858 -0.37410733
18920000000 -0.78148675 -0.30815479
18960000000 -0.8082934 -0.23836896
19000000000 -0.82662922 -0.15610917
19040000000 -0.83706206 -0.070435852
19080000000 -0.83830875 0.0072044055
19120000000 -0.84158576 0.094536185
19160000000 -0.82719523 0.17102078
19200000000 -0.81111622 0.2410312
19240000000 -0.78991753 0.31232843
19280000000 -0.75833738 0.38246879
19320000000 -0.72122514 0.44548431
19360000000 -0.68268979 0.50443161
19400000000 -0.63297242 0.56333095
19440000000 -0.57514715 0.6219818
19480000000 -0.51695687 0.66815418
19520000000 -0.45959714 0.71834284
19560000000 -0.38982069 0.75505948
19600000000 -0.33185115 0.78578234
19640000000 -0.27657479 0.80909175
19680000000 -0.20918949 0.82733464
19720000000 -0.13899991 0.84115148
19760000000 -0.068121329 0.84564668
19800000000 0.0083037643 0.85555845
19840000000 0.090317123 0.84987974
19880000000 0.16241372 0.83600098
19920000000 0.23220222 0.82533348
19960000000 0.29970592 0.80789161
20000000000 0.35846096 0.78334063
