!Agilent Technologies,E8361C,US49010278,A.09.20.08
!Agilent E8361C: A.09.20.08
!Date: Tuesday, December 15, 2015 15:57:04
!Correction: S22(Full 2 Port(1,2)) 
!S1P File: Measurement: S22:
# Hz S  RI   R 50
1000000000 -0.52542937 -0.84241593
1040000000 -0.59326661 -0.79424107
1080000000 -0.65820843 -0.74343437
1120000000 -0.71722555 -0.68430763
1160000000 -0.77048755 -0.62290102
1200000000 -0.81864268 -0.55722088
1240000000 -0.86014926 -0.48790181
1280000000 -0.90000641 -0.4135603
1320000000 -0.92780441 -0.33904609
1360000000 -0.95461726 -0.25874829
1400000000 -0.97052866 -0.17993896
1440000000 -0.98224485 -0.099932358
1480000000 -0.98572707 -0.016455313
1520000000 -0.98516083 0.062747307
1560000000 -0.97461951 0.14347567
1600000000 -0.96020168 0.22117056
1640000000 -0.93645734 0.30242294
1680000000 -0.90968877 0.37341535
1720000000 -0.87558013 0.45001483
1760000000 -0.83475363 0.51942295
1800000000 -0.78848106 0.58800679
1840000000 -0.7392537 0.64903003
1880000000 -0.6822629 0.70731062
1920000000 -0.61875838 0.75939924
1960000000 -0.55429506 0.80944198
2000000000 -0.48641613 0.85074818
2040000000 -0.41666046 0.88970226
2080000000 -0.34089145 0.91804236
2120000000 -0.26329097 0.94648588
2160000000 -0.1831702 0.96254909
2200000000 -0.10767022 0.97955412
2240000000 -0.021862546 0.98102099
2280000000 0.053832144 0.97856408
2320000000 0.13755834 0.96911186
2360000000 0.21741001 0.95504218
2400000000 0.29939929 0.93481028
2440000000 0.37094885 0.90369928
2480000000 0.44775128 0.87183654
2520000000 0.52049035 0.82804573
2560000000 0.58514351 0.77934241
2600000000 0.65270972 0.72849613
2640000000 0.71290153 0.66880351
2680000000 0.764745 0.60840797
2720000000 0.82011962 0.54011267
2760000000 0.85612929 0.46801528
2800000000 0.89770097 0.39526069
2840000000 0.9298625 0.31384322
2880000000 0.94787747 0.23775364
2920000000 0.96624351 0.15203524
2960000000 0.97556156 0.069052108
3000000000 0.97753221 -0.014054558
3040000000 0.97257853 -0.097747967
3080000000 0.95137626 -0.18809384
3120000000 0.93814015 -0.26667494
3160000000 0.9116987 -0.35824803
3200000000 0.87686074 -0.4264496
3240000000 0.84600884 -0.50325465
3280000000 0.79165936 -0.5719775
3320000000 0.7445727 -0.63194406
3360000000 0.67962629 -0.70104182
3400000000 0.61719042 -0.75540656
3440000000 0.55471343 -0.80613416
3480000000 0.47970533 -0.85034931
3520000000 0.39490545 -0.88435251
3560000000 0.31397128 -0.91769964
3600000000 0.22408532 -0.94804007
3640000000 0.1443399 -0.9634077
3680000000 0.062969089 -0.97124863
3720000000 -0.029964939 -0.97043091
3760000000 -0.11257593 -0.9601143
3800000000 -0.19736901 -0.9495796
3840000000 -0.28041857 -0.92526573
3880000000 -0.36129925 -0.90056008
3920000000 -0.44073975 -0.86883724
3960000000 -0.50968271 -0.82493198
4000000000 -0.58009595 -0.77664524
4040000000 -0.64581007 -0.72056651
4080000000 -0.70188957 -0.6604231
4120000000 -0.76399881 -0.59517437
4160000000 -0.80728209 -0.52840465
4200000000 -0.8582046 -0.45722294
4240000000 -0.88477629 -0.37940198
4280000000 -0.91399455 -0.30329156
4320000000 -0.93796879 -0.21715428
4360000000 -0.94784087 -0.13557586
4400000000 -0.95978457 -0.049747471
4440000000 -0.96289659 0.032444272
4480000000 -0.95435643 0.10909345
4520000000 -0.94064778 0.19070973
4560000000 -0.91884458 0.27289742
4600000000 -0.89402342 0.34808147
4640000000 -0.85529989 0.41867307
4680000000 -0.81830597 0.49571881
4720000000 -0.76333481 0.56813085
4760000000 -0.72102982 0.62976515
4800000000 -0.66263855 0.69910079
4840000000 -0.59882402 0.74595147
4880000000 -0.54019994 0.7964015
4920000000 -0.46071216 0.83277828
4960000000 -0.39267024 0.86531651
5000000000 -0.31596166 0.89671344
5040000000 -0.24429476 0.92046231
5080000000 -0.16865475 0.93251991
5120000000 -0.098876826 0.94270819
5160000000 -0.012756399 0.95060122
5200000000 0.05583005 0.95052892
5240000000 0.13223918 0.9444688
5280000000 0.21111347 0.92231292
5320000000 0.28392458 0.89838761
5360000000 0.35819799 0.87760544
5400000000 0.43137947 0.83895236
5440000000 0.49738482 0.80562961
5480000000 0.56461215 0.76392817
5520000000 0.62025607 0.71901792
5560000000 0.67086488 0.67196459
5600000000 0.72665119 0.60319096
5640000000 0.77172565 0.54131418
5680000000 0.8189925 0.48506328
5720000000 0.85353833 0.40956432
5760000000 0.88650769 0.33981058
5800000000 0.90578878 0.26438272
5840000000 0.92463815 0.19522822
5880000000 0.94015956 0.12390152
5920000000 0.94976723 0.043682814
5960000000 0.94618833 -0.023739671
6000000000 0.94267571 -0.097262532
6040000000 0.92786878 -0.17403224
6080000000 0.9085654 -0.24866623
6120000000 0.89579707 -0.32832056
6160000000 0.86197865 -0.39696091
6200000000 0.82961822 -0.45549536
6240000000 0.79026371 -0.51919395
6280000000 0.73999476 -0.57737249
6320000000 0.70059997 -0.6382457
6360000000 0.64300555 -0.69868714
6400000000 0.58808732 -0.74079204
6440000000 0.53118509 -0.79765964
6480000000 0.46080092 -0.83061713
6520000000 0.39577338 -0.86423278
6560000000 0.31244135 -0.89572275
6600000000 0.24411379 -0.91710114
6640000000 0.1720593 -0.9416067
6680000000 0.099393904 -0.94704068
6720000000 0.027743943 -0.94417554
6760000000 -0.055168252 -0.94448328
6800000000 -0.13955478 -0.93421346
6840000000 -0.21039975 -0.92677671
6880000000 -0.30057275 -0.90830803
6920000000 -0.36728871 -0.87822598
6960000000 -0.44213635 -0.85226256
7000000000 -0.5112679 -0.80500585
7040000000 -0.57165772 -0.76242787
7080000000 -0.64190942 -0.70837438
7120000000 -0.69422483 -0.65484107
7160000000 -0.74497491 -0.60161883
7200000000 -0.7903952 -0.5288896
7240000000 -0.8295998 -0.45527893
7280000000 -0.87287253 -0.37889892
7320000000 -0.90281963 -0.29459974
7360000000 -0.92650378 -0.22487693
7400000000 -0.95032436 -0.14001432
7440000000 -0.95238459 -0.063072547
7480000000 -0.95785075 0.013575579
7520000000 -0.94917578 0.09818808
7560000000 -0.9376002 0.18077794
7600000000 -0.91926897 0.26266518
7640000000 -0.89400953 0.34024402
7680000000 -0.85952294 0.41350514
7720000000 -0.81422484 0.49155289
7760000000 -0.76537007 0.56629401
7800000000 -0.71268845 0.63215786
7840000000 -0.65026706 0.68983823
7880000000 -0.58209693 0.74922073
7920000000 -0.50784808 0.79535401
7960000000 -0.43673134 0.84098589
8000000000 -0.35489991 0.87950164
8040000000 -0.27806333 0.90742922
8080000000 -0.19318552 0.93462658
8120000000 -0.10936552 0.94206637
8160000000 -0.02405793 0.94546908
8200000000 0.0741698 0.93802136
8240000000 0.16189505 0.9275378
8280000000 0.25090453 0.91258907
8320000000 0.3300612 0.88393557
8360000000 0.40433568 0.84976119
8400000000 0.48182192 0.80467588
8440000000 0.55281132 0.7531876
8480000000 0.61448258 0.710262
8520000000 0.68292564 0.6472736
8560000000 0.73130232 0.58797252
8600000000 0.78372699 0.52702016
8640000000 0.81799483 0.44668436
8680000000 0.85472518 0.3690193
8720000000 0.8874225 0.28108722
8760000000 0.91105431 0.1987797
8800000000 0.92874944 0.12294671
8840000000 0.93025213 0.043402858
8880000000 0.9247337 -0.034060616
8920000000 0.91979587 -0.11872746
8960000000 0.8972249 -0.2003136
9000000000 0.88099962 -0.27395344
9040000000 0.8587293 -0.35671929
9080000000 0.81888926 -0.42259347
9120000000 0.78560305 -0.48739064
9160000000 0.7324962 -0.54942441
9200000000 0.6829071 -0.60931993
9240000000 0.62393349 -0.67263097
9280000000 0.5674997 -0.72159559
9320000000 0.50543958 -0.76590592
9360000000 0.43341273 -0.80100554
9400000000 0.35819408 -0.82955778
9440000000 0.29099834 -0.86277658
9480000000 0.21402992 -0.88367063
9520000000 0.15063503 -0.89175981
9560000000 0.070957616 -0.90863281
9600000000 -0.00082080794 -0.90352553
9640000000 -0.077386387 -0.89789999
9680000000 -0.16100544 -0.88267213
9720000000 -0.23933761 -0.86520678
9760000000 -0.31353912 -0.84635884
9800000000 -0.37284514 -0.82291895
9840000000 -0.42946598 -0.78770667
9880000000 -0.49114555 -0.74995631
9920000000 -0.54954022 -0.70482588
9960000000 -0.6021623 -0.66566372
10000000000 -0.65265912 -0.61091697
10040000000 -0.69575077 -0.55639338
10080000000 -0.74435234 -0.50164825
10120000000 -0.7772333 -0.43280685
10160000000 -0.80386269 -0.37042695
10200000000 -0.83243775 -0.30086562
10240000000 -0.8568368 -0.23310603
10280000000 -0.87093294 -0.17010127
10320000000 -0.87948 -0.10129911
10360000000 -0.87841934 -0.031349462
10400000000 -0.87697089 0.043553557
10440000000 -0.86494607 0.12172797
10480000000 -0.85699242 0.18625408
10520000000 -0.84166682 0.25679654
10560000000 -0.80884105 0.32337663
10600000000 -0.78699535 0.38322377
10640000000 -0.74587238 0.44433847
10680000000 -0.70497537 0.50244409
10720000000 -0.65733457 0.56283492
10760000000 -0.60850966 0.61931032
10800000000 -0.55321026 0.66357571
10840000000 -0.49467823 0.70458949
10880000000 -0.42881638 0.74261862
10920000000 -0.36979282 0.77724081
10960000000 -0.30280063 0.80624717
11000000000 -0.24443136 0.82294512
11040000000 -0.17544532 0.84306663
11080000000 -0.1010962 0.8495906
11120000000 -0.02405837 0.84962314
11160000000 0.050646622 0.85270345
11200000000 0.1332681 0.8445648
11240000000 0.20219691 0.83086717
11280000000 0.27099234 0.81746823
11320000000 0.33693412 0.78564447
11360000000 0.40318048 0.74982929
11400000000 0.47118348 0.70908839
11440000000 0.53104419 0.66988242
11480000000 0.5932743 0.61954623
11520000000 0.64013684 0.56188393
11560000000 0.69008964 0.49769709
11600000000 0.74126703 0.42513379
11640000000 0.77604377 0.34567675
11680000000 0.81062943 0.27574736
11720000000 0.84367746 0.20099072
11760000000 0.85736698 0.13790812
11800000000 0.86684549 0.082625993
11840000000 0.86792409 0.018209774
11880000000 0.8679598 -0.044315204
11920000000 0.86367482 -0.11300138
11960000000 0.85271025 -0.18227766
12000000000 0.82590687 -0.26244605
12040000000 0.79771298 -0.33749434
12080000000 0.76610518 -0.42168936
12120000000 0.72163451 -0.48866847
12160000000 0.68071711 -0.54577124
12200000000 0.6276508 -0.60735017
12240000000 0.56730384 -0.65979987
12280000000 0.50157821 -0.7125299
12320000000 0.42690325 -0.76662582
12360000000 0.35144696 -0.80834353
12400000000 0.27529964 -0.84034014
12440000000 0.19145218 -0.85912919
12480000000 0.12025766 -0.88476503
12520000000 0.049620561 -0.89491075
12560000000 -0.0019211388 -0.89863521
12600000000 -0.073087394 -0.90395957
12640000000 -0.13497537 -0.8892526
12680000000 -0.20355949 -0.87351227
12720000000 -0.27737063 -0.85594267
12760000000 -0.35935429 -0.823277
12800000000 -0.42497012 -0.7960797
12840000000 -0.49092439 -0.76480532
12880000000 -0.55103332 -0.7185086
12920000000 -0.60930252 -0.68160105
12960000000 -0.65516454 -0.63958353
13000000000 -0.69803095 -0.58641976
13040000000 -0.74049801 -0.52494895
13080000000 -0.78883356 -0.46552914
13120000000 -0.82117695 -0.38907951
13160000000 -0.85197663 -0.32703516
13200000000 -0.88250089 -0.25931978
13240000000 -0.89671242 -0.18191721
13280000000 -0.90348333 -0.10956781
13320000000 -0.91323626 -0.035743803
13360000000 -0.91056907 0.05114476
13400000000 -0.90548033 0.13749862
13440000000 -0.89438862 0.21453181
13480000000 -0.87122172 0.29215151
13520000000 -0.84150475 0.36620095
13560000000 -0.80439794 0.43798023
13600000000 -0.77741271 0.49697787
13640000000 -0.73959023 0.56003428
13680000000 -0.69276136 0.6039874
13720000000 -0.64615548 0.66239929
13760000000 -0.58440608 0.70772046
13800000000 -0.51858068 0.74875385
13840000000 -0.44864234 0.7931062
13880000000 -0.37687543 0.83514792
13920000000 -0.31097794 0.8612588
13960000000 -0.23963682 0.88598603
14000000000 -0.16389498 0.89431447
14040000000 -0.081630446 0.90467191
14080000000 0.0019194566 0.90340763
14120000000 0.078113213 0.90514457
14160000000 0.15810832 0.89722383
14200000000 0.23488204 0.87129635
14240000000 0.30385596 0.84384322
14280000000 0.37989148 0.81612808
14320000000 0.45733058 0.76466197
14360000000 0.5257448 0.71693039
14400000000 0.6009562 0.66269881
14440000000 0.65791678 0.59675807
14480000000 0.71122426 0.52815795
14520000000 0.75511461 0.44734353
14560000000 0.79976445 0.37774381
14600000000 0.83486462 0.29142207
14640000000 0.85346621 0.22193608
14680000000 0.87429518 0.13137785
14720000000 0.87374955 0.043876275
14760000000 0.86937606 -0.035199273
14800000000 0.86330432 -0.12088104
14840000000 0.8477509 -0.20610027
14880000000 0.82184345 -0.27430493
14920000000 0.79945493 -0.35560998
14960000000 0.75438589 -0.41760784
15000000000 0.70656031 -0.49259105
15040000000 0.64573169 -0.55655205
15080000000 0.58776999 -0.62582421
15120000000 0.52383614 -0.68297428
15160000000 0.46586791 -0.71990955
15200000000 0.40283659 -0.75937665
15240000000 0.32268748 -0.7866888
15280000000 0.25265902 -0.80893999
15320000000 0.17202617 -0.82522172
15360000000 0.079629183 -0.83513755
15400000000 0.0016594995 -0.84196413
15440000000 -0.080336764 -0.83905953
15480000000 -0.15334642 -0.82550591
15520000000 -0.22876117 -0.81051695
15560000000 -0.29806229 -0.77405667
15600000000 -0.37577575 -0.74996346
15640000000 -0.43971887 -0.70857996
15680000000 -0.50269419 -0.67130977
15720000000 -0.56965572 -0.62466729
15760000000 -0.6189087 -0.56804419
15800000000 -0.65932655 -0.51159632
15840000000 -0.70476437 -0.45644593
15880000000 -0.73753572 -0.39054185
15920000000 -0.76896513 -0.33052275
15960000000 -0.79823714 -0.27145195
16000000000 -0.81139481 -0.20923357
16040000000 -0.82549828 -0.14366378
16080000000 -0.82666796 -0.073992148
16120000000 -0.83488369 -0.00081672909
16160000000 -0.82815737 0.069230482
16200000000 -0.82963294 0.13012704
16240000000 -0.81811726 0.20143515
16280000000 -0.79833615 0.25273255
16320000000 -0.78688681 0.30397612
16360000000 -0.76107311 0.35903934
16400000000 -0.72871649 0.40982416
16440000000 -0.70128727 0.45587251
16480000000 -0.6703198 0.50776011
16520000000 -0.63747203 0.54715705
16560000000 -0.59898359 0.58621097
16600000000 -0.55314988 0.6226145
16640000000 -0.4999994 0.66409498
16680000000 -0.44105941 0.70252782
16720000000 -0.3857165 0.73428613
16760000000 -0.32154968 0.75889337
16800000000 -0.25087577 0.78954774
16840000000 -0.19544381 0.80255711
16880000000 -0.13888445 0.81949288
16920000000 -0.080470756 0.82634068
16960000000 -0.029775936 0.83270764
17000000000 0.018883111 0.83658004
17040000000 0.07513608 0.8282783
17080000000 0.14287835 0.81430036
17120000000 0.2106373 0.79552513
17160000000 0.27449206 0.78391802
17200000000 0.33877632 0.76065046
17240000000 0.38890821 0.73207909
17280000000 0.44845474 0.70013672
17320000000 0.50599515 0.65416777
17360000000 0.56026614 0.59898466
17400000000 0.61085224 0.55373108
17440000000 0.66832095 0.4961715
17480000000 0.70293897 0.4428212
17520000000 0.74214953 0.38773793
17560000000 0.76590061 0.32576016
17600000000 0.79082078 0.25353646
17640000000 0.81031877 0.18332435
17680000000 0.83354205 0.11819382
17720000000 0.84020334 0.042395275
17760000000 0.83667779 -0.023850715
17800000000 0.83375376 -0.092175871
17840000000 0.82761979 -0.16527422
17880000000 0.80706519 -0.23121271
17920000000 0.79048169 -0.2873418
17960000000 0.77010387 -0.35751939
18000000000 0.73402178 -0.41494602
18040000000 0.69602752 -0.46810052
18080000000 0.64494205 -0.52515751
18120000000 0.58474439 -0.59031218
18160000000 0.51944494 -0.6456269
18200000000 0.45564774 -0.69733083
18240000000 0.37497285 -0.7425589
18280000000 0.28416693 -0.77447081
18320000000 0.19886786 -0.80220848
18360000000 0.11087406 -0.82884413
18400000000 0.019694436 -0.83486456
18440000000 -0.05412047 -0.83399922
18480000000 -0.13617814 -0.83300513
18520000000 -0.21418267 -0.81878006
18560000000 -0.28341162 -0.78969771
18600000000 -0.35740343 -0.75841022
18640000000 -0.43668804 -0.72386116
18680000000 -0.50250435 -0.67578936
18720000000 -0.56376791 -0.62798876
18760000000 -0.62136453 -0.56399888
18800000000 -0.68143594 -0.50177801
18840000000 -0.72501606 -0.43395343
18880000000 -0.76882446 -0.3710131
18920000000 -0.79992849 -0.29679683
18960000000 -0.81863481 -0.21939319
19000000000 -0.83353621 -0.14482751
19040000000 -0.84309667 -0.060783301
19080000000 -0.83597291 0.033973675
19120000000 -0.8325187 0.1205401
19160000000 -0.82477647 0.2125978
19200000000 -0.80525178 0.28661022
19240000000 -0.7759791 0.35236835
19280000000 -0.74627435 0.41501132
19320000000 -0.71928436 0.4772222
19360000000 -0.6750828 0.53448141
19400000000 -0.63062346 0.5816862
19440000000 -0.58089781 0.63573182
19480000000 -0.51813138 0.68317789
19520000000 -0.45519418 0.72011936
19560000000 -0.39355108 0.75935024
19600000000 -0.3206352 0.79426301
19640000000 -0.25708801 0.8172279
19680000000 -0.19676194 0.83412081
19720000000 -0.12267956 0.84136188
19760000000 -0.040197961 0.85019869
19800000000 0.033373848 0.84993297
19840000000 0.10272372 0.85644126
19880000000 0.17452689 0.84704244
19920000000 0.23333 0.82272506
19960000000 0.29913273 0.79570425
20000000000 0.36986241 0.76876557
