!Agilent Technologies,E8361C,US49010278,A.09.20.08
!Agilent E8361C: A.09.20.08
!Date: Tuesday, December 15, 2015 15:53:14
!Correction: S11(Full 2 Port(1,2)) 
!S21(Full 2 Port(1,2)) 
!S12(Full 2 Port(1,2)) 
!S22(Full 2 Port(1,2)) 
!S2P File: Measurements: S11, S21, S12, S22:
# Hz S  RI   R 50
1000000000 -0.0098691452 0.0066715572 -0.49056485 -0.86054611 -0.49123302 -0.86146373 -0.013174037 0.0029890006
1040000000 -0.0079561593 0.0069712088 -0.55901629 -0.81650895 -0.56112874 -0.81763071 -0.012324478 0.0040181354
1080000000 -0.0063272831 0.0052762595 -0.62663406 -0.7661249 -0.62733018 -0.76749849 -0.010661196 0.0028606521
1120000000 -0.0046579754 0.0082011661 -0.68823266 -0.7112093 -0.6898728 -0.71232969 -0.0089779729 0.0055064862
1160000000 -0.0010620492 0.0086002741 -0.74585539 -0.65155399 -0.74708241 -0.65223992 -0.0071917572 0.0030678979
1200000000 -4.4768662e-005 0.0078405552 -0.79718786 -0.58843374 -0.79888231 -0.58844787 -0.0052518458 0.0050930586
1240000000 0.0017262109 0.0073524304 -0.84236985 -0.52012497 -0.84477139 -0.51985592 -0.0041648722 0.0047421581
1280000000 0.0017279082 0.0067501962 -0.88354725 -0.44793773 -0.88443184 -0.44838184 -0.0034048876 0.0046895347
1320000000 0.0050715175 0.0046934942 -0.91703886 -0.37235999 -0.91868329 -0.37303144 -0.0022873292 0.0024540704
1360000000 0.0037664236 0.0047999937 -0.94499147 -0.29545599 -0.94596761 -0.29516089 -0.0014958499 0.0039072409
1400000000 0.0068463176 0.0025172504 -0.96610808 -0.21558861 -0.96785134 -0.21473293 0.00066265359 -0.00021155202
1440000000 0.0068215411 -0.00041146431 -0.98034602 -0.13401106 -0.98127866 -0.13404672 -0.0017532011 -0.0010878051
1480000000 0.0064803427 -0.0012632521 -0.98773986 -0.052272197 -0.98779625 -0.0523085 0.0011836556 -0.0021395129
1520000000 0.0048167459 -0.0055909026 -0.98810929 0.031702261 -0.98883855 0.031349979 -0.00046654456 -0.0059808167
1560000000 0.002666892 -0.0022445382 -0.97713608 0.10946625 -0.9812308 0.11276691 0.0011652834 -0.0068427254
1600000000 0.00076736364 -0.012399196 -0.96437508 0.19546062 -0.96662259 0.19357762 -0.0048893178 -0.0063706092
1640000000 -0.0025191365 -0.010844189 -0.94419855 0.27635705 -0.94769216 0.27481404 -2.1620306e-005 -0.0096737621
1680000000 0.0032728943 -0.017790271 -0.92188329 0.35415933 -0.92019111 0.35393992 -0.0078339372 -0.013008863
1720000000 -0.0020769667 -0.020233268 -0.88778907 0.43076679 -0.88932711 0.43004876 -0.0035163714 -0.013708908
1760000000 -0.002615066 -0.018585972 -0.8505922 0.5012449 -0.85221934 0.50401694 -0.0080253603 -0.017574942
1800000000 -0.00080324331 -0.020062182 -0.80764472 0.57169485 -0.80823308 0.57300436 -0.0075107957 -0.018208314
1840000000 -0.0071945395 -0.022796245 -0.75576818 0.63675046 -0.75760609 0.63686502 -0.013450588 -0.019197658
1880000000 -0.010503748 -0.021098716 -0.70098877 0.69470119 -0.70152122 0.69694638 -0.010956191 -0.019133445
1920000000 -0.0097635379 -0.019314531 -0.64069027 0.75106186 -0.64105755 0.7516281 -0.017665651 -0.022064883
1960000000 -0.012128278 -0.019146385 -0.57587522 0.80094242 -0.57707179 0.80141819 -0.020044412 -0.016906438
2000000000 -0.020391978 -0.018714942 -0.50610906 0.8462491 -0.50765431 0.84466851 -0.019951535 -0.01957885
2040000000 -0.021063436 -0.012005034 -0.43597773 0.88353962 -0.43411347 0.88406247 -0.026229018 -0.017598772
2080000000 -0.025555003 -0.016297352 -0.36137512 0.91705096 -0.35745889 0.91488284 -0.03008659 -0.014420393
2120000000 -0.033840358 -0.0048450539 -0.28024995 0.9399761 -0.2818726 0.94379199 -0.027932636 -0.015189261
2160000000 -0.03023272 -0.0098020248 -0.20107417 0.95970821 -0.19889633 0.96281046 -0.035299201 -0.011848778
2200000000 -0.045809481 -0.0066752685 -0.11692361 0.97603047 -0.11915961 0.97539359 -0.0365238 -0.004104685
2240000000 -0.040649246 -0.0034865278 -0.035445936 0.98090607 -0.035306904 0.98372161 -0.041203789 -0.0062282775
2280000000 -0.042619389 -0.0044618961 0.044383727 0.98308396 0.046282142 0.98124522 -0.045356266 0.0016121969
2320000000 -0.046019029 -0.0018779462 0.12794484 0.97506005 0.12876926 0.97604346 -0.044132084 0.0021390975
2360000000 -0.043825231 0.0063191247 0.20756255 0.9610855 0.20725055 0.96254027 -0.04712997 0.0049211765
2400000000 -0.041167501 0.0089083249 0.284646 0.94078553 0.28556284 0.94300389 -0.045169659 0.0094862152
2440000000 -0.045242798 0.011486159 0.36333555 0.91385728 0.36176234 0.91292399 -0.047463994 0.01514748
2480000000 -0.04117246 0.016805796 0.4343991 0.88013226 0.43597871 0.88114768 -0.041695915 0.016585911
2520000000 -0.038543519 0.019538935 0.50766772 0.8412751 0.50754875 0.84148663 -0.044257481 0.020912869
2560000000 -0.03497785 0.018813821 0.57410985 0.79446471 0.57417816 0.79562837 -0.039196212 0.027002312
2600000000 -0.032623243 0.031302586 0.63812703 0.74223101 0.63747388 0.74498463 -0.036172397 0.028454382
2640000000 -0.024310742 0.031850468 0.69704199 0.68639523 0.69833678 0.68662244 -0.03543064 0.033451609
2680000000 -0.032372292 0.038961317 0.75070393 0.62414038 0.7523967 0.62464011 -0.03188521 0.036752
2720000000 -0.021969926 0.045665879 0.80312061 0.55784488 0.8038522 0.56069207 -0.025950117 0.038320888
2760000000 -0.027437953 0.042324401 0.84575164 0.49013186 0.84729683 0.49064055 -0.025577772 0.042770002
2800000000 -0.021917196 0.04680926 0.8851527 0.41885906 0.88530833 0.42070729 -0.016021166 0.045671154
2840000000 -0.014342398 0.045260917 0.9172309 0.34497842 0.91822165 0.34580484 -0.018521935 0.043736644
2880000000 -0.015690029 0.045787457 0.94275141 0.2682125 0.94338787 0.26680925 -0.013082556 0.049588758
2920000000 -0.01187679 0.042639289 0.96226293 0.18735556 0.96385437 0.18944941 -0.009333821 0.04332662
2960000000 -0.0031387089 0.041420259 0.97455835 0.10704485 0.97575468 0.10994783 -0.0047603329 0.046293866
3000000000 -0.0013801786 0.041776333 0.97969007 0.026620219 0.97860456 0.026632763 0.00078250282 0.041016128
3040000000 0.0040313019 0.040138826 0.97657788 -0.055887617 0.97705889 -0.054060578 0.0038706111 0.041156132
3080000000 0.0050522964 0.0096772024 0.97127539 -0.12941058 0.97074139 -0.13039516 0.0069302684 0.042637166
3120000000 0.016439613 0.021797337 0.95103252 -0.20798102 0.95647818 -0.20797554 0.0020145115 0.032899454
3160000000 0.031884409 0.019316347 0.92710984 -0.28951898 0.93243366 -0.28890297 0.005814624 0.027515002
3200000000 0.028213922 0.030836742 0.89437896 -0.36969209 0.89834791 -0.36630872 0.019433733 0.024703596
3240000000 0.030980831 0.035877503 0.86497551 -0.4446694 0.866997 -0.43976316 0.0198077 0.014899891
3280000000 0.01944002 0.029715089 0.82521635 -0.51923144 0.82490534 -0.51966149 0.020219868 0.0229045
3320000000 0.016562236 0.02841017 0.78025681 -0.58700675 0.7770223 -0.58649457 0.031515401 0.018822467
3360000000 0.015726605 0.013284137 0.73024333 -0.64996672 0.73211193 -0.65088183 0.018894112 0.017121118
3400000000 0.017653817 0.012597832 0.67261589 -0.70951366 0.67700857 -0.71286052 0.021029023 0.0079029528
3440000000 0.019615555 0.018464308 0.61565858 -0.7614857 0.61748302 -0.76477194 0.012340634 0.0066879936
3480000000 0.010146877 0.017661896 0.55183184 -0.81659669 0.55288386 -0.81057239 0.022789346 0.00088250707
3520000000 -0.0083497688 0.014236449 0.48274538 -0.85700923 0.48421839 -0.85505599 0.011839897 -0.0045293649
3560000000 -0.0078817047 0.0018200484 0.41658172 -0.88965315 0.41206527 -0.89286846 0.01500606 0.0056125736
3600000000 -0.01036337 -0.015599811 0.33832198 -0.91910833 0.33694988 -0.92016959 0.0059163873 0.00082357629
3640000000 0.0019862757 -0.0098642576 0.25617731 -0.94049376 0.26168969 -0.94204599 -0.0025367336 -0.0059104855
3680000000 0.0015958238 -0.0054667736 0.17685567 -0.95620847 0.17990801 -0.96032411 -0.0064487997 -0.0063680699
3720000000 -0.0035850869 -0.0036603108 0.094883658 -0.97042376 0.092859752 -0.96796101 -0.0065325359 -0.0095607005
3760000000 -0.012617122 -0.0035921438 0.0099676466 -0.96816647 0.0099513987 -0.97063994 -0.0092191836 -0.011109182
3800000000 -0.011099651 0.0015548333 -0.072904915 -0.96766198 -0.073377512 -0.97129828 -0.015661225 -0.0049892114
3840000000 -0.015843436 0.0018069393 -0.15618081 -0.95847893 -0.15728982 -0.96310037 -0.02033936 -0.0065518664
3880000000 -0.01672834 0.0016853508 -0.23448627 -0.94346929 -0.23601307 -0.94817007 -0.019107131 -0.0016035705
3920000000 -0.016179139 0.0070769358 -0.31546786 -0.9228459 -0.31265241 -0.92750955 -0.029537451 -0.0064443625
3960000000 -0.011724182 0.017087772 -0.39232668 -0.89626241 -0.39292192 -0.89890844 -0.029400561 0.01077338
4000000000 -0.026896952 0.01445989 -0.45942172 -0.85901296 -0.45954749 -0.86081982 -0.031635597 0.0086272638
4040000000 -0.029160822 0.020656735 -0.52943999 -0.81747103 -0.53146762 -0.81833363 -0.033897068 0.0153212
4080000000 -0.034021795 0.039604615 -0.59627616 -0.78141344 -0.59919047 -0.77566648 -0.025714755 0.015400907
4120000000 -0.049475502 0.037520543 -0.65542275 -0.72477949 -0.65775323 -0.72217643 -0.032378465 0.02282661
4160000000 -0.042471379 0.032986101 -0.70856047 -0.66244876 -0.71171749 -0.66644526 -0.032334175 0.036288332
4200000000 -0.041376442 0.026213614 -0.76108009 -0.59973663 -0.76450288 -0.60335034 -0.033203445 0.041482989
4240000000 -0.025632324 0.033515088 -0.81042254 -0.52801609 -0.80969357 -0.53034109 -0.035265472 0.038068857
4280000000 -0.019930147 0.042260036 -0.84995496 -0.45746258 -0.85013431 -0.46088001 -0.035364486 0.047394607
4320000000 -0.015574527 0.048659917 -0.888668 -0.38537979 -0.89051062 -0.38508138 -0.025861416 0.050664142
4360000000 -0.013653179 0.057456054 -0.91722155 -0.30716696 -0.92092329 -0.30439037 -0.021431113 0.05333266
4400000000 -0.015224449 0.063354984 -0.93919021 -0.23088628 -0.94315547 -0.22980529 -0.016823713 0.061760835
4440000000 -0.0077973693 0.063006699 -0.95772684 -0.14735603 -0.96162832 -0.15015264 -0.018713988 0.067600548
4480000000 0.0051409025 0.059918247 -0.9700405 -0.069408052 -0.97273475 -0.070151873 -0.00079768983 0.068552308
4520000000 0.0028075369 0.071264699 -0.97020924 0.0073254276 -0.97119772 0.0067654005 0.0017887787 0.071628973
4560000000 0.0097287614 0.074478775 -0.96603423 0.089212753 -0.96599972 0.08841221 0.0091991676 0.071735315
4600000000 0.014882341 0.078109324 -0.9606815 0.16732951 -0.96138883 0.1695963 0.022384966 0.066780783
4640000000 0.028117932 0.085579291 -0.94180816 0.24188426 -0.94204783 0.24438776 0.024400217 0.077126026
4680000000 0.029350476 0.077549666 -0.91782242 0.3210969 -0.91711646 0.31866997 0.034257088 0.073643729
4720000000 0.031319454 0.086513333 -0.87841308 0.39227825 -0.8808502 0.39232233 0.039426792 0.071161449
4760000000 0.036712594 0.072366349 -0.84251726 0.46811101 -0.83987355 0.46798348 0.043312639 0.067722306
4800000000 0.036262408 0.073573358 -0.7961092 0.53752166 -0.79602432 0.53783566 0.053940233 0.064839728
4840000000 0.044194601 0.062181041 -0.74461418 0.60190338 -0.74737489 0.60506797 0.059991878 0.06071132
4880000000 0.048681241 0.053930745 -0.69448668 0.66551852 -0.69561094 0.66848677 0.0661259 0.058437113
4920000000 0.063498028 0.045583416 -0.6330803 0.72347856 -0.63723248 0.72286773 0.065473966 0.048223775
4960000000 0.069338873 0.036489837 -0.57383859 0.77484667 -0.57813245 0.77270746 0.067588039 0.055318478
5000000000 0.076807521 0.042476568 -0.51303542 0.81584233 -0.51505947 0.81641304 0.076057881 0.035980597
5040000000 0.077242382 0.038118031 -0.44313028 0.85593772 -0.4445076 0.85659456 0.078783378 0.02840868
5080000000 0.089572221 0.024550831 -0.37472787 0.89169461 -0.37705219 0.89543748 0.086047769 0.01873838
5120000000 0.08663097 0.0200825 -0.30160797 0.92414153 -0.30405909 0.921588 0.080661096 0.01199081
5160000000 0.094478898 0.025985828 -0.22008508 0.93900132 -0.22242747 0.93981761 0.08354608 0.0032312395
5200000000 0.087796643 0.017042303 -0.14746928 0.95417297 -0.1436957 0.95539063 0.07802394 -0.0052980697
5240000000 0.082939036 0.011326677 -0.062697403 0.96225029 -0.061568063 0.96304691 0.08028385 -0.01205147
5280000000 0.077726915 0.0025100682 0.019082166 0.95687675 0.0179433 0.96033132 0.080599993 -0.016627053
5320000000 0.075989693 -0.0032679874 0.096803635 0.95069569 0.097770259 0.95425653 0.075941876 -0.02368439
5360000000 0.062570654 -0.012201678 0.18666093 0.93869323 0.18497728 0.94186389 0.06724228 -0.023124428
5400000000 0.062469218 -0.020647401 0.26332447 0.91942388 0.2619659 0.92090541 0.067520902 -0.030250095
5440000000 0.059435025 -0.027809843 0.34060133 0.90000886 0.34399393 0.90056306 0.052337196 -0.038232513
5480000000 0.06291756 -0.035167646 0.41589928 0.87118274 0.41785395 0.8712576 0.04664278 -0.036614724
5520000000 0.051712289 -0.032839354 0.48696417 0.83522809 0.4887788 0.83519846 0.044147111 -0.049695786
5560000000 0.040437642 -0.03348669 0.55778527 0.7907576 0.55664951 0.79568017 0.039103847 -0.04600402
5600000000 0.041822564 -0.045560535 0.61708063 0.74468601 0.61824924 0.74635178 0.030420059 -0.051008645
5640000000 0.037436843 -0.048764214 0.67868036 0.69378221 0.67753869 0.69025654 0.021767538 -0.041589078
5680000000 0.034103457 -0.043606594 0.73127609 0.63229913 0.73163325 0.63125938 0.01697338 -0.048943769
5720000000 0.040201485 -0.040696554 0.77376115 0.57135469 0.77751541 0.57046539 0.0045156698 -0.049347449
5760000000 0.035821758 -0.031902354 0.82055658 0.50247574 0.82122284 0.50185329 0.0022562288 -0.050861914
5800000000 0.023077188 -0.02660444 0.85733408 0.42503285 0.85729331 0.42693895 0.0039056544 -0.047690116
5840000000 0.018256405 -0.02494311 0.8889448 0.35308316 0.89013618 0.35392028 -0.0032972258 -0.047316343
5880000000 0.0088988813 -0.025197359 0.91942966 0.27294877 0.91973436 0.2741152 -0.0072418079 -0.033264726
5920000000 0.014356251 -0.024671163 0.93608963 0.19332334 0.93954706 0.19315161 -0.011175591 -0.028887283
5960000000 0.00700058 -0.020049633 0.95018256 0.11526641 0.95040315 0.11479227 -0.014910024 -0.02408639
6000000000 0.0041659484 -0.016286669 0.96010816 0.037125874 0.96039975 0.03813269 -0.015305748 -0.017562414
6040000000 0.00065142993 -0.013346899 0.95900905 -0.043273419 0.96031696 -0.04266936 -0.019105159 -0.010596883
6080000000 -0.01270511 -0.011898086 0.95621777 -0.12478445 0.95338506 -0.12684877 -0.0075768586 0.0010370909
6120000000 -0.003680768 -0.006944031 0.94293708 -0.20271511 0.94255251 -0.20357135 -0.017893761 0.0018888828
6160000000 0.00026425178 -0.0067740707 0.92089599 -0.27858704 0.9227277 -0.28043032 -0.018577637 0.014399283
6200000000 -0.0027552422 0.0035159651 0.89534932 -0.35395938 0.89638293 -0.35496539 -0.014782192 0.0098514082
6240000000 0.0068029664 0.011592403 0.86062932 -0.42775545 0.86164588 -0.42523405 -0.0092138546 0.01678491
6280000000 0.0015789313 0.0035130901 0.82110536 -0.49389476 0.82217145 -0.49424508 -0.0049035829 0.0213542
6320000000 0.0096548768 0.012027653 0.78041488 -0.56163138 0.77712113 -0.56180954 5.6679211e-005 0.028179927
6360000000 0.022286274 0.0084947674 0.72114837 -0.62321007 0.72267073 -0.62389469 0.0055404818 0.032868903
6400000000 0.027014976 0.016678333 0.66281945 -0.67782009 0.6655767 -0.67990053 0.0071471292 0.028674271
6440000000 0.040328883 0.019703317 0.60306048 -0.73600322 0.60690141 -0.73756176 0.010257604 0.029233344
6480000000 0.044075646 0.028322969 0.53379691 -0.78547847 0.53688288 -0.78819591 0.029634936 0.026533943
6520000000 0.049416166 0.032207638 0.47105899 -0.83128095 0.4726021 -0.831074 0.033278681 0.020458411
6560000000 0.045738131 0.030663772 0.40015611 -0.86996788 0.40136898 -0.87087387 0.042534713 0.031243837
6600000000 0.045229021 0.024096115 0.3291924 -0.89888591 0.32689744 -0.90085131 0.056804419 0.024394674
6640000000 0.055581275 0.019275073 0.25331545 -0.92579198 0.25383824 -0.92614257 0.053549875 0.026084583
6680000000 0.064881817 0.011421082 0.1741522 -0.94327736 0.1763595 -0.94519526 0.062265154 0.017324829
6720000000 0.059349243 0.016990149 0.099604212 -0.95468539 0.099200726 -0.95698059 0.062867887 0.014694377
6760000000 0.06626527 0.0086418465 0.021229809 -0.96245849 0.022126518 -0.95760214 0.069087394 0.008149338
6800000000 0.058039617 -0.003436784 -0.057972554 -0.95314872 -0.056657054 -0.9548434 0.072451517 -0.00039021022
6840000000 0.067436032 -0.010847111 -0.1326409 -0.94232768 -0.13594973 -0.9447307 0.074009113 -0.0015243725
6880000000 0.068739988 -0.02805623 -0.21843925 -0.92289633 -0.21977648 -0.92676216 0.074448831 -0.0066693905
6920000000 0.078421019 -0.03316367 -0.29425916 -0.89889592 -0.29363453 -0.90139747 0.070109874 -0.023465408
6960000000 0.083796941 -0.041956682 -0.36966673 -0.87175429 -0.36901814 -0.874237 0.065819517 -0.025192345
7000000000 0.087274082 -0.039412025 -0.4478696 -0.83755475 -0.44666609 -0.83819413 0.073076271 -0.044325769
7040000000 0.087437548 -0.040741961 -0.51449424 -0.79706401 -0.5156827 -0.79791403 0.064844206 -0.053982083
7080000000 0.074501164 -0.048348922 -0.58122343 -0.75433433 -0.58132041 -0.75399882 0.067142233 -0.057917789
7120000000 0.068839364 -0.055350281 -0.64088494 -0.70459265 -0.64483327 -0.7061193 0.066317372 -0.072130717
7160000000 0.072733358 -0.065740556 -0.70065564 -0.64972532 -0.70090783 -0.65132904 0.058244165 -0.071273178
7200000000 0.069247268 -0.070906982 -0.75429249 -0.58937383 -0.75170773 -0.59188414 0.050846409 -0.079541467
7240000000 0.061285015 -0.063986138 -0.79790527 -0.52920699 -0.79767776 -0.52964431 0.044444144 -0.080974475
7280000000 0.050663069 -0.071340032 -0.83834672 -0.4631609 -0.83733821 -0.4594346 0.043449629 -0.091313019
7320000000 0.034363773 -0.07470648 -0.86983204 -0.38766065 -0.87073427 -0.38867858 0.032420449 -0.090530865
7360000000 0.0292283 -0.085426278 -0.8945663 -0.31358519 -0.89741778 -0.31565279 0.025676578 -0.087699845
7400000000 0.016290119 -0.09266641 -0.91937691 -0.23395489 -0.92015904 -0.23757164 0.018224021 -0.087340087
7440000000 0.017340245 -0.098852426 -0.93350273 -0.15339117 -0.93401599 -0.15529938 -0.0005437326 -0.09277036
7480000000 0.010651163 -0.10101254 -0.94268668 -0.077012233 -0.94234079 -0.075070649 -0.0071155275 -0.087500297
7520000000 0.008311999 -0.09451741 -0.94933689 0.0061791767 -0.95037961 0.0074271071 -0.011058387 -0.092499793
7560000000 -0.00096473651 -0.088734165 -0.94268334 0.087917708 -0.94804686 0.089183033 -0.021867899 -0.086390726
7600000000 -0.010971703 -0.087481029 -0.9348039 0.16571122 -0.9372189 0.16665551 -0.02864952 -0.084503993
7640000000 -0.02310806 -0.082452483 -0.91942215 0.24609448 -0.92389005 0.2421561 -0.040753957 -0.074429803
7680000000 -0.016948892 -0.085617214 -0.89928895 0.32158133 -0.90218407 0.32289574 -0.042562507 -0.077889726
7720000000 -0.029548811 -0.077691279 -0.86602372 0.39090195 -0.86812854 0.39088091 -0.049309127 -0.069947787
7760000000 -0.035072178 -0.069428831 -0.83197272 0.46225289 -0.8322255 0.4607206 -0.053749733 -0.063526802
7800000000 -0.04056143 -0.066498756 -0.79415023 0.52848107 -0.79381299 0.5260188 -0.057656225 -0.058705874
7840000000 -0.039331954 -0.062619671 -0.74498749 0.59158611 -0.74459052 0.59101284 -0.057574764 -0.04937572
7880000000 -0.044460904 -0.04969186 -0.69317794 0.65236759 -0.69192106 0.65304917 -0.061056718 -0.045891669
7920000000 -0.040821139 -0.036006384 -0.63260293 0.707937 -0.63432455 0.70868564 -0.060431987 -0.035881884
7960000000 -0.050474416 -0.029095918 -0.57030863 0.756051 -0.5722158 0.75697637 -0.055626679 -0.025549529
8000000000 -0.053111203 -0.023485549 -0.50195622 0.80150491 -0.50324011 0.80162919 -0.049105331 -0.018800726
8040000000 -0.051487505 -0.017936295 -0.42809859 0.8438952 -0.43111533 0.8447634 -0.057150099 -0.012072243
8080000000 -0.050998151 -0.013187626 -0.35492125 0.87584877 -0.35602027 0.87811255 -0.048347116 -7.2078867e-005
8120000000 -0.046444267 -0.018217225 -0.28083906 0.90952736 -0.28248367 0.91037858 -0.047617204 0.00082360569
8160000000 -0.038748395 -0.012476487 -0.20460227 0.93005508 -0.20503415 0.93436432 -0.048280001 0.010840882
8200000000 -0.026032448 -0.009109051 -0.1290354 0.94506115 -0.12807216 0.94689447 -0.04039875 0.015187552
8240000000 -0.027331466 -0.0010415262 -0.04803022 0.95416385 -0.051118597 0.95367724 -0.038300458 0.025315579
8280000000 -0.021504562 0.0060742614 0.030198054 0.95311952 0.029020377 0.95457023 -0.034961514 0.019395592
